 (2025-11-03 13:21:09.285224)  can0  720   [1]  7F
 (2025-11-03 13:21:11.285573)  can0  720   [1]  7F
 (2025-11-03 13:21:12.999198)  can0  04110402   [8]  61 15 00 70 C0 0A 18 00
 (2025-11-03 13:21:13.000379)  can0  08308102   [8]  61 15 00 70 C0 0A 18 00
 (2025-11-03 13:21:13.000680)  can0  04110480   [8]  2F 17 09 00 00 03 44 44
 (2025-11-03 13:21:13.000832)  can0  04110481   [8]  52 0A 74 65 73 74 5F 64
 (2025-11-03 13:21:13.000881)  can0  04110482   [6]  69 72 5F 31 D1 29
 (2025-11-03 13:21:13.000944)  can0  04110700   [0] 
 (2025-11-03 13:21:13.007073)  can0  083083C0   [1]  07
 (2025-11-03 13:21:13.007298)  can0  04110580   [0] 
 (2025-11-03 13:21:13.009471)  can0  08308100   [0] 
 (2025-11-03 13:21:13.285326)  can0       720   [1]  7F
 (2025-11-03 13:21:13.408078)  can0  08308002   [8]  01 13 00 85 C2 0A 08 00
 (2025-11-03 13:21:13.408697)  can0  04110502   [8]  01 13 00 85 C2 0A 08 00
 (2025-11-03 13:21:13.410882)  can0  08308080   [8]  20 01 01 00 00 00 00 00
 (2025-11-03 13:21:13.411281)  can0  08308081   [8]  00 0B 0A 2F 5E 12 18 0A
 (2025-11-03 13:21:13.411562)  can0  08308082   [4]  C0 70 5A 54
 (2025-11-03 13:21:13.411752)  can0  08308300   [0] 
 (2025-11-03 13:21:13.411957)  can0  041107C0   [1]  07
 (2025-11-03 13:21:13.412790)  can0  08308180   [0] 
 (2025-11-03 13:21:13.413007)  can0  04110500   [0] 
 (2025-11-03 13:21:13.508541)  can0  08308002   [8]  01 13 00 86 C2 0A 08 00
 (2025-11-03 13:21:13.509103)  can0  04110502   [8]  01 13 00 86 C2 0A 08 00
 (2025-11-03 13:21:13.510937)  can0  08308080   [8]  20 01 03 00 00 00 00 00
 (2025-11-03 13:21:13.511308)  can0  08308081   [8]  00 0B 0A 30 A4 F8 18 0A
 (2025-11-03 13:21:13.511575)  can0  08308082   [4]  C0 70 A3 88
 (2025-11-03 13:21:13.511776)  can0  08308300   [0] 
 (2025-11-03 13:21:13.511984)  can0  041107C0   [1]  07
 (2025-11-03 13:21:13.512776)  can0  08308180   [0] 
 (2025-11-03 13:21:13.512996)  can0  04110500   [0] 
 (2025-11-03 13:21:13.513905)  can0  08308002   [8]  01 13 00 87 C2 0A 08 00
 (2025-11-03 13:21:13.514122)  can0  04110502   [8]  01 13 00 87 C2 0A 08 00
 (2025-11-03 13:21:13.515132)  can0  08308080   [8]  20 01 07 00 00 00 00 00
 (2025-11-03 13:21:13.515485)  can0  08308081   [8]  00 0B 0A 30 B8 0B 18 0A
 (2025-11-03 13:21:13.515718)  can0  08308082   [4]  C0 70 36 4F
 (2025-11-03 13:21:13.515941)  can0  08308300   [0] 
 (2025-11-03 13:21:13.516118)  can0  041107C0   [1]  07
 (2025-11-03 13:21:13.517064)  can0  08308180   [0] 
 (2025-11-03 13:21:13.517244)  can0  04110500   [0] 
 (2025-11-03 13:21:13.521852)  can0  04110402   [8]  63 15 00 71 C0 0A 18 00
 (2025-11-03 13:21:13.522808)  can0  08308102   [8]  63 15 00 71 C0 0A 18 00
 (2025-11-03 13:21:13.523043)  can0  04110480   [8]  2F 17 09 00 00 03 44 44
 (2025-11-03 13:21:13.523143)  can0  04110481   [8]  52 0A 74 65 73 74 5F 64
 (2025-11-03 13:21:13.523202)  can0  04110482   [6]  69 72 5F 32 84 41
 (2025-11-03 13:21:13.523270)  can0  04110700   [0] 
 (2025-11-03 13:21:13.524475)  can0  083083C0   [1]  07
 (2025-11-03 13:21:13.524693)  can0  04110580   [0] 
 (2025-11-03 13:21:13.525434)  can0  08308100   [0] 
 (2025-11-03 13:21:13.908070)  can0  08308002   [8]  01 13 00 88 C2 0A 08 00
 (2025-11-03 13:21:13.909426)  can0  04110502   [8]  01 13 00 88 C2 0A 08 00
 (2025-11-03 13:21:13.910457)  can0  08308080   [8]  20 01 01 00 00 00 00 00
 (2025-11-03 13:21:13.910730)  can0  08308081   [8]  00 0B 0A AF 5E 35 18 0A
 (2025-11-03 13:21:13.910962)  can0  08308082   [4]  C0 71 F3 D7
 (2025-11-03 13:21:13.911234)  can0  08308300   [0] 
 (2025-11-03 13:21:13.911445)  can0  041107C0   [1]  07
 (2025-11-03 13:21:13.912355)  can0  08308180   [0] 
 (2025-11-03 13:21:13.912563)  can0  04110500   [0] 
 (2025-11-03 13:21:14.007775)  can0  08308002   [8]  01 13 00 89 C2 0A 08 00
 (2025-11-03 13:21:14.008286)  can0  04110502   [8]  01 13 00 89 C2 0A 08 00
 (2025-11-03 13:21:14.010204)  can0  08308080   [8]  20 01 03 00 00 00 00 00
 (2025-11-03 13:21:14.010603)  can0  08308081   [8]  00 0B 0A B0 A6 C5 18 0A
 (2025-11-03 13:21:14.010813)  can0  08308082   [4]  C0 71 78 72
 (2025-11-03 13:21:14.011050)  can0  08308300   [0] 
 (2025-11-03 13:21:14.011237)  can0  041107C0   [1]  07
 (2025-11-03 13:21:14.011995)  can0  08308180   [0] 
 (2025-11-03 13:21:14.012175)  can0  04110500   [0] 
 (2025-11-03 13:21:14.108132)  can0  08308002   [8]  01 13 00 8A C2 0A 08 00
 (2025-11-03 13:21:14.108690)  can0  04110502   [8]  01 13 00 8A C2 0A 08 00
 (2025-11-03 13:21:14.110136)  can0  08308080   [8]  20 01 07 00 00 00 00 00
 (2025-11-03 13:21:14.110532)  can0  08308081   [8]  00 0B 0A B0 B9 7C 18 0A
 (2025-11-03 13:21:14.110738)  can0  08308082   [4]  C0 71 CF 5E
 (2025-11-03 13:21:14.110975)  can0  08308300   [0] 
 (2025-11-03 13:21:14.111188)  can0  041107C0   [1]  07
 (2025-11-03 13:21:14.111938)  can0  08308180   [0] 
 (2025-11-03 13:21:14.112176)  can0  04110500   [0] 
 (2025-11-03 13:21:14.117397)  can0  04110401   [8]  65 0A 00 72 C0 0A 18 00
 (2025-11-03 13:21:14.118446)  can0  08308101   [8]  65 0A 00 72 C0 0A 18 00
 (2025-11-03 13:21:14.118681)  can0  04110480   [8]  2F 17 0C 00 00 03 44 44
 (2025-11-03 13:21:14.118772)  can0  04110481   [3]  52 B5 2F
 (2025-11-03 13:21:14.118845)  can0  04110700   [0] 
 (2025-11-03 13:21:14.119845)  can0  083083C0   [1]  03
 (2025-11-03 13:21:14.120029)  can0  04110580   [0] 
 (2025-11-03 13:21:14.120705)  can0  08308100   [0] 
 (2025-11-03 13:21:14.508070)  can0  08308002   [8]  01 13 00 8B C2 0A 08 00
 (2025-11-03 13:21:14.508682)  can0  04110502   [8]  01 13 00 8B C2 0A 08 00
 (2025-11-03 13:21:14.510908)  can0  08308080   [8]  20 01 01 00 00 00 00 00
 (2025-11-03 13:21:14.511313)  can0  08308081   [8]  00 0B 0B 48 F6 37 18 0A
 (2025-11-03 13:21:14.511586)  can0  08308082   [4]  C0 72 43 12
 (2025-11-03 13:21:14.511784)  can0  08308300   [0] 
 (2025-11-03 13:21:14.511992)  can0  041107C0   [1]  07
 (2025-11-03 13:21:14.512809)  can0  08308180   [0] 
 (2025-11-03 13:21:14.513006)  can0  04110500   [0] 
 (2025-11-03 13:21:14.609483)  can0  08308002   [8]  01 13 00 8C C2 0A 08 00
 (2025-11-03 13:21:14.610051)  can0  04110502   [8]  01 13 00 8C C2 0A 08 00
 (2025-11-03 13:21:14.611790)  can0  08308080   [8]  20 01 03 00 00 00 00 00
 (2025-11-03 13:21:14.612067)  can0  08308081   [8]  00 0B 0B 4A 42 3D 18 0A
 (2025-11-03 13:21:14.612384)  can0  08308082   [4]  C0 72 D1 BB
 (2025-11-03 13:21:14.612688)  can0  08308300   [0] 
 (2025-11-03 13:21:14.612903)  can0  041107C0   [1]  07
 (2025-11-03 13:21:14.613834)  can0  08308180   [0] 
 (2025-11-03 13:21:14.614049)  can0  04110500   [0] 
 (2025-11-03 13:21:14.614953)  can0  08308005   [8]  01 2C 00 8D C2 0A 08 00
 (2025-11-03 13:21:14.615159)  can0  04110505   [8]  01 2C 00 8D C2 0A 08 00
 (2025-11-03 13:21:14.616107)  can0  08308080   [8]  20 17 0D 00 00 00 00 00
 (2025-11-03 13:21:14.616477)  can0  08308081   [8]  00 0B 0B 4A 4C 59 03 44
 (2025-11-03 13:21:14.616758)  can0  08308082   [8]  44 52 02 01 0A 74 65 73
 (2025-11-03 13:21:14.617000)  can0  08308083   [8]  74 5F 64 69 72 5F 31 01
 (2025-11-03 13:21:14.617309)  can0  08308084   [8]  0A 74 65 73 74 5F 64 69
 (2025-11-03 13:21:14.617569)  can0  08308085   [5]  72 5F 32 B7 C1
 (2025-11-03 13:21:14.617754)  can0  08308300   [0] 
 (2025-11-03 13:21:14.617925)  can0  041107C0   [1]  3F
 (2025-11-03 13:21:14.618797)  can0  08308180   [0] 
 (2025-11-03 13:21:14.618987)  can0  04110500   [0] 
 (2025-11-03 13:21:14.619912)  can0  08308002   [8]  01 13 00 8E C2 0A 08 00
 (2025-11-03 13:21:14.620107)  can0  04110502   [8]  01 13 00 8E C2 0A 08 00
 (2025-11-03 13:21:14.620963)  can0  08308080   [8]  20 01 07 00 00 00 00 00
 (2025-11-03 13:21:14.621287)  can0  08308081   [8]  00 0B 0B 4A 51 93 18 0A
 (2025-11-03 13:21:14.621535)  can0  08308082   [4]  C0 72 DB 0C
 (2025-11-03 13:21:14.621741)  can0  08308300   [0] 
 (2025-11-03 13:21:14.621945)  can0  041107C0   [1]  07
 (2025-11-03 13:21:14.622694)  can0  08308180   [0] 
 (2025-11-03 13:21:14.622897)  can0  04110500   [0] 
 (2025-11-03 13:21:14.633573)  can0  04110402   [8]  67 15 00 73 C0 0A 18 00
 (2025-11-03 13:21:14.634684)  can0  08308102   [8]  67 15 00 73 C0 0A 18 00
 (2025-11-03 13:21:14.634990)  can0  04110480   [8]  2F 17 0C 00 00 0E 44 44
 (2025-11-03 13:21:14.635053)  can0  04110481   [8]  52 2F 74 65 73 74 5F 64
 (2025-11-03 13:21:14.635107)  can0  04110482   [6]  69 72 5F 31 4F DD
 (2025-11-03 13:21:14.635178)  can0  04110700   [0] 
 (2025-11-03 13:21:14.636292)  can0  083083C0   [1]  07
 (2025-11-03 13:21:14.636501)  can0  04110580   [0] 
 (2025-11-03 13:21:14.637213)  can0  08308100   [0] 
 (2025-11-03 13:21:15.008094)  can0  08308002   [8]  01 13 00 8F C2 0A 08 00
 (2025-11-03 13:21:15.008685)  can0  04110502   [8]  01 13 00 8F C2 0A 08 00
 (2025-11-03 13:21:15.010487)  can0  08308080   [8]  20 01 01 00 00 00 00 00
 (2025-11-03 13:21:15.010507)  can0  08308081   [8]  00 0B 0B C8 F8 38 18 0A
 (2025-11-03 13:21:15.010754)  can0  08308082   [4]  C0 73 7A 2B
 (2025-11-03 13:21:15.010984)  can0  08308300   [0] 
 (2025-11-03 13:21:15.011250)  can0  041107C0   [1]  07
 (2025-11-03 13:21:15.012060)  can0  08308180   [0] 
 (2025-11-03 13:21:15.012285)  can0  04110500   [0] 
 (2025-11-03 13:21:15.109391)  can0  08308002   [8]  01 13 00 90 C2 0A 08 00
 (2025-11-03 13:21:15.109990)  can0  04110502   [8]  01 13 00 90 C2 0A 08 00
 (2025-11-03 13:21:15.112024)  can0  08308080   [8]  20 01 03 00 00 00 00 00
 (2025-11-03 13:21:15.112052)  can0  08308081   [8]  00 0B 0B CA 40 B8 18 0A
 (2025-11-03 13:21:15.112053)  can0  08308082   [4]  C0 73 C6 A4
 (2025-11-03 13:21:15.112295)  can0  08308300   [0] 
 (2025-11-03 13:21:15.112685)  can0  041107C0   [1]  07
 (2025-11-03 13:21:15.113601)  can0  08308180   [0] 
 (2025-11-03 13:21:15.113829)  can0  04110500   [0] 
 (2025-11-03 13:21:15.114832)  can0  08308003   [8]  01 1F 00 91 C2 0A 08 00
 (2025-11-03 13:21:15.115062)  can0  04110503   [8]  01 1F 00 91 C2 0A 08 00
 (2025-11-03 13:21:15.115996)  can0  08308080   [8]  20 17 0D 00 00 00 00 00
 (2025-11-03 13:21:15.116347)  can0  08308081   [8]  00 0B 0B CA 4A FE 0E 44
 (2025-11-03 13:21:15.116681)  can0  08308082   [8]  44 52 2F 74 65 73 74 5F
 (2025-11-03 13:21:15.116863)  can0  08308083   [8]  64 69 72 5F 31 00 1D D2
 (2025-11-03 13:21:15.117052)  can0  08308300   [0] 
 (2025-11-03 13:21:15.117234)  can0  041107C0   [1]  0F
 (2025-11-03 13:21:15.117991)  can0  08308180   [0] 
 (2025-11-03 13:21:15.118178)  can0  04110500   [0] 
 (2025-11-03 13:21:15.118965)  can0  08308002   [8]  01 13 00 92 C2 0A 08 00
 (2025-11-03 13:21:15.119158)  can0  04110502   [8]  01 13 00 92 C2 0A 08 00
 (2025-11-03 13:21:15.120004)  can0  08308080   [8]  20 01 07 00 00 00 00 00
 (2025-11-03 13:21:15.120374)  can0  08308081   [8]  00 0B 0B CA 4F FB 18 0A
 (2025-11-03 13:21:15.120612)  can0  08308082   [4]  C0 73 C7 02
 (2025-11-03 13:21:15.120802)  can0  08308300   [0] 
 (2025-11-03 13:21:15.120983)  can0  041107C0   [1]  07
 (2025-11-03 13:21:15.121691)  can0  08308180   [0] 
 (2025-11-03 13:21:15.121884)  can0  04110500   [0] 
 (2025-11-03 13:21:15.132078)  can0  04110402   [8]  69 15 00 74 C0 0A 18 00
 (2025-11-03 13:21:15.133161)  can0  08308102   [8]  69 15 00 74 C0 0A 18 00
 (2025-11-03 13:21:15.133394)  can0  04110480   [8]  2F 17 0C 00 00 0E 44 44
 (2025-11-03 13:21:15.133477)  can0  04110481   [8]  52 2F 74 65 73 74 5F 64
 (2025-11-03 13:21:15.133537)  can0  04110482   [6]  69 72 5F 32 54 AE
 (2025-11-03 13:21:15.133592)  can0  04110700   [0] 
 (2025-11-03 13:21:15.134771)  can0  083083C0   [1]  07
 (2025-11-03 13:21:15.134957)  can0  04110580   [0] 
 (2025-11-03 13:21:15.135685)  can0  08308100   [0] 
 (2025-11-03 13:21:15.285412)  can0       720   [1]  7F
 (2025-11-03 13:21:15.508090)  can0  08308002   [8]  01 13 00 93 C2 0A 08 00
 (2025-11-03 13:21:15.508682)  can0  04110502   [8]  01 13 00 93 C2 0A 08 00
 (2025-11-03 13:21:15.510116)  can0  08308080   [8]  20 01 01 00 00 00 00 00
 (2025-11-03 13:21:15.510504)  can0  08308081   [8]  00 0B 0C 48 F8 4C 18 0A
 (2025-11-03 13:21:15.510748)  can0  08308082   [4]  C0 74 D4 AD
 (2025-11-03 13:21:15.510955)  can0  08308300   [0] 
 (2025-11-03 13:21:15.511188)  can0  041107C0   [1]  07
 (2025-11-03 13:21:15.511930)  can0  08308180   [0] 
 (2025-11-03 13:21:15.512179)  can0  04110500   [0] 
 (2025-11-03 13:21:15.609455)  can0  08308002   [8]  01 13 00 94 C2 0A 08 00
 (2025-11-03 13:21:15.610031)  can0  04110502   [8]  01 13 00 94 C2 0A 08 00
 (2025-11-03 13:21:15.612218)  can0  08308080   [8]  20 01 03 00 00 00 00 00
 (2025-11-03 13:21:15.612595)  can0  08308081   [8]  00 0B 0C 4A 45 BF 18 0A
 (2025-11-03 13:21:15.612826)  can0  08308082   [4]  C0 74 99 CC
 (2025-11-03 13:21:15.613059)  can0  08308300   [0] 
 (2025-11-03 13:21:15.613271)  can0  041107C0   [1]  07
 (2025-11-03 13:21:15.614296)  can0  08308180   [0] 
 (2025-11-03 13:21:15.614502)  can0  04110500   [0] 
 (2025-11-03 13:21:15.615500)  can0  08308003   [8]  01 1F 00 95 C2 0A 08 00
 (2025-11-03 13:21:15.615798)  can0  04110503   [8]  01 1F 00 95 C2 0A 08 00
 (2025-11-03 13:21:15.616912)  can0  08308080   [8]  20 17 0D 00 00 00 00 00
 (2025-11-03 13:21:15.617140)  can0  08308081   [8]  00 0B 0C 4A 4F CA 0E 44
 (2025-11-03 13:21:15.617512)  can0  08308082   [8]  44 52 2F 74 65 73 74 5F
 (2025-11-03 13:21:15.617745)  can0  08308083   [8]  64 69 72 5F 32 00 24 7E
 (2025-11-03 13:21:15.617923)  can0  08308300   [0] 
 (2025-11-03 13:21:15.618105)  can0  041107C0   [1]  0F
 (2025-11-03 13:21:15.618843)  can0  08308180   [0] 
 (2025-11-03 13:21:15.619033)  can0  04110500   [0] 
 (2025-11-03 13:21:15.619915)  can0  08308002   [8]  01 13 00 96 C2 0A 08 00
 (2025-11-03 13:21:15.620100)  can0  04110502   [8]  01 13 00 96 C2 0A 08 00
 (2025-11-03 13:21:15.620980)  can0  08308080   [8]  20 01 07 00 00 00 00 00
 (2025-11-03 13:21:15.621320)  can0  08308081   [8]  00 0B 0C 4A 54 E4 18 0A
 (2025-11-03 13:21:15.621569)  can0  08308082   [4]  C0 74 04 3A
 (2025-11-03 13:21:15.621751)  can0  08308300   [0] 
 (2025-11-03 13:21:15.621949)  can0  041107C0   [1]  07
 (2025-11-03 13:21:15.622732)  can0  08308180   [0] 
 (2025-11-03 13:21:15.622966)  can0  04110500   [0] 
 (2025-11-03 13:21:15.633685)  can0  04110404   [8]  6B 25 00 75 C0 0A 18 00
 (2025-11-03 13:21:15.634700)  can0  08308104   [8]  6B 25 00 75 C0 0A 18 00
 (2025-11-03 13:21:15.635037)  can0  04110480   [8]  2F 17 01 00 00 0E 44 44
 (2025-11-03 13:21:15.635109)  can0  04110481   [8]  52 2F 74 65 73 74 5F 64
 (2025-11-03 13:21:15.635162)  can0  04110482   [8]  69 72 5F 31 0B 74 65 73
 (2025-11-03 13:21:15.635232)  can0  04110483   [8]  74 5F 66 69 6C 65 5F 31
 (2025-11-03 13:21:15.635295)  can0  04110484   [6]  00 00 04 00 3F 8B
 (2025-11-03 13:21:15.635424)  can0  04110700   [0] 
 (2025-11-03 13:21:15.636832)  can0  083083C0   [1]  1F
 (2025-11-03 13:21:15.637030)  can0  04110580   [0] 
 (2025-11-03 13:21:15.637686)  can0  08308100   [0] 
 (2025-11-03 13:21:16.008086)  can0  08308002   [8]  01 13 00 97 C2 0A 08 00
 (2025-11-03 13:21:16.008687)  can0  04110502   [8]  01 13 00 97 C2 0A 08 00
 (2025-11-03 13:21:16.010117)  can0  08308080   [8]  20 01 01 00 00 00 00 00
 (2025-11-03 13:21:16.010516)  can0  08308081   [8]  00 0B 0C C8 FA F2 18 0A
 (2025-11-03 13:21:16.010728)  can0  08308082   [4]  C0 75 62 18
 (2025-11-03 13:21:16.010964)  can0  08308300   [0] 
 (2025-11-03 13:21:16.011175)  can0  041107C0   [1]  07
 (2025-11-03 13:21:16.012104)  can0  08308180   [0] 
 (2025-11-03 13:21:16.012300)  can0  04110500   [0] 
 (2025-11-03 13:21:16.108877)  can0  08308002   [8]  01 13 00 98 C2 0A 08 00
 (2025-11-03 13:21:16.109510)  can0  04110502   [8]  01 13 00 98 C2 0A 08 00
 (2025-11-03 13:21:16.110948)  can0  08308080   [8]  20 01 03 00 00 00 00 00
 (2025-11-03 13:21:16.111310)  can0  08308081   [8]  00 0B 0C CA 45 CC 18 0A
 (2025-11-03 13:21:16.111576)  can0  08308082   [4]  C0 75 79 8D
 (2025-11-03 13:21:16.111798)  can0  08308300   [0] 
 (2025-11-03 13:21:16.112024)  can0  041107C0   [1]  07
 (2025-11-03 13:21:16.112859)  can0  08308180   [0] 
 (2025-11-03 13:21:16.113076)  can0  04110500   [0] 
 (2025-11-03 13:21:16.113930)  can0  08308002   [8]  01 13 00 99 C2 0A 08 00
 (2025-11-03 13:21:16.114151)  can0  04110502   [8]  01 13 00 99 C2 0A 08 00
 (2025-11-03 13:21:16.115136)  can0  08308080   [8]  20 01 07 00 00 00 00 00
 (2025-11-03 13:21:16.115485)  can0  08308081   [8]  00 0B 0C CA 5A 1E 18 0A
 (2025-11-03 13:21:16.115733)  can0  08308082   [4]  C0 75 80 4F
 (2025-11-03 13:21:16.115954)  can0  08308300   [0] 
 (2025-11-03 13:21:16.116148)  can0  041107C0   [1]  07
 (2025-11-03 13:21:16.117068)  can0  08308180   [0] 
 (2025-11-03 13:21:16.117289)  can0  04110500   [0] 
 (2025-11-03 13:21:17.124345)  can0  04110404   [8]  6D 25 00 76 C0 0A 18 00
 (2025-11-03 13:21:17.125533)  can0  08308104   [8]  6D 25 00 76 C0 0A 18 00
 (2025-11-03 13:21:17.125817)  can0  04110480   [8]  2F 17 01 00 00 0E 44 44
 (2025-11-03 13:21:17.125956)  can0  04110481   [8]  52 2F 74 65 73 74 5F 64
 (2025-11-03 13:21:17.125997)  can0  04110482   [8]  69 72 5F 31 0B 74 65 73
 (2025-11-03 13:21:17.126087)  can0  04110483   [8]  74 5F 66 69 6C 65 5F 32
 (2025-11-03 13:21:17.126148)  can0  04110484   [6]  00 00 04 00 BA A7
 (2025-11-03 13:21:17.126237)  can0  04110700   [0] 
 (2025-11-03 13:21:17.127706)  can0  083083C0   [1]  1F
 (2025-11-03 13:21:17.127912)  can0  04110580   [0] 
 (2025-11-03 13:21:17.128690)  can0  08308100   [0] 
 (2025-11-03 13:21:17.285280)  can0       720   [1]  7F
 (2025-11-03 13:21:17.507775)  can0  08308002   [8]  01 13 00 9A C2 0A 08 00
 (2025-11-03 13:21:17.508293)  can0  04110502   [8]  01 13 00 9A C2 0A 08 00
 (2025-11-03 13:21:17.510211)  can0  08308080   [8]  20 01 01 00 00 00 00 00
 (2025-11-03 13:21:17.510687)  can0  08308081   [8]  00 0B 0E 48 FA 78 18 0A
 (2025-11-03 13:21:17.510832)  can0  08308082   [4]  C0 76 6F 61
 (2025-11-03 13:21:17.511081)  can0  08308300   [0] 
 (2025-11-03 13:21:17.511266)  can0  041107C0   [1]  07
 (2025-11-03 13:21:17.512036)  can0  08308180   [0] 
 (2025-11-03 13:21:17.512243)  can0  04110500   [0] 
 (2025-11-03 13:21:17.608902)  can0  08308002   [8]  01 13 00 9B C2 0A 08 00
 (2025-11-03 13:21:17.609499)  can0  04110502   [8]  01 13 00 9B C2 0A 08 00
 (2025-11-03 13:21:17.610978)  can0  08308080   [8]  20 01 03 00 00 00 00 00
 (2025-11-03 13:21:17.611353)  can0  08308081   [8]  00 0B 0E 4A 45 EB 18 0A
 (2025-11-03 13:21:17.611601)  can0  08308082   [4]  C0 76 6C EA
 (2025-11-03 13:21:17.611823)  can0  08308300   [0] 
 (2025-11-03 13:21:17.612007)  can0  041107C0   [1]  07
 (2025-11-03 13:21:17.612830)  can0  08308180   [0] 
 (2025-11-03 13:21:17.613030)  can0  04110500   [0] 
 (2025-11-03 13:21:17.613952)  can0  08308002   [8]  01 13 00 9C C2 0A 08 00
 (2025-11-03 13:21:17.614181)  can0  04110502   [8]  01 13 00 9C C2 0A 08 00
 (2025-11-03 13:21:17.615148)  can0  08308080   [8]  20 01 07 00 00 00 00 00
 (2025-11-03 13:21:17.615507)  can0  08308081   [8]  00 0B 0E 4A 5A 1B 18 0A
 (2025-11-03 13:21:17.615760)  can0  08308082   [4]  C0 76 05 69
 (2025-11-03 13:21:17.615951)  can0  08308300   [0] 
 (2025-11-03 13:21:17.616128)  can0  041107C0   [1]  07
 (2025-11-03 13:21:17.616884)  can0  08308180   [0] 
 (2025-11-03 13:21:17.617078)  can0  04110500   [0] 
 (2025-11-03 13:21:19.285295)  can0       720   [1]  7F
 (2025-11-03 13:21:20.624482)  can0  04110402   [8]  6F 15 00 77 C0 0A 18 00
 (2025-11-03 13:21:20.625714)  can0  08308102   [8]  6F 15 00 77 C0 0A 18 00
 (2025-11-03 13:21:20.626034)  can0  04110480   [8]  2F 17 0C 00 00 0E 44 44
 (2025-11-03 13:21:20.626104)  can0  04110481   [8]  52 2F 74 65 73 74 5F 64
 (2025-11-03 13:21:20.626156)  can0  04110482   [6]  69 72 5F 31 CB D0
 (2025-11-03 13:21:20.626214)  can0  04110700   [0] 
 (2025-11-03 13:21:20.627398)  can0  083083C0   [1]  07
 (2025-11-03 13:21:20.627686)  can0  04110580   [0] 
 (2025-11-03 13:21:20.628381)  can0  08308100   [0] 
 (2025-11-03 13:21:21.008321)  can0  08308002   [8]  01 13 00 9D C2 0A 08 00
 (2025-11-03 13:21:21.008885)  can0  04110502   [8]  01 13 00 9D C2 0A 08 00
 (2025-11-03 13:21:21.010763)  can0  08308080   [8]  20 01 01 00 00 00 00 00
 (2025-11-03 13:21:21.011074)  can0  08308081   [8]  00 0B 11 C8 F7 E7 18 0A
 (2025-11-03 13:21:21.011411)  can0  08308082   [4]  C0 77 34 7F
 (2025-11-03 13:21:21.011701)  can0  08308300   [0] 
 (2025-11-03 13:21:21.011914)  can0  041107C0   [1]  07
 (2025-11-03 13:21:21.012984)  can0  08308180   [0] 
 (2025-11-03 13:21:21.013232)  can0  04110500   [0] 
 (2025-11-03 13:21:21.109716)  can0  08308002   [8]  01 13 00 9E C2 0A 08 00
 (2025-11-03 13:21:21.110338)  can0  04110502   [8]  01 13 00 9E C2 0A 08 00
 (2025-11-03 13:21:21.111712)  can0  08308080   [8]  20 01 03 00 00 00 00 00
 (2025-11-03 13:21:21.111966)  can0  08308081   [8]  00 0B 11 CA 43 BE 18 0A
 (2025-11-03 13:21:21.112155)  can0  08308082   [4]  C0 77 3A 8D
 (2025-11-03 13:21:21.112480)  can0  08308300   [0] 
 (2025-11-03 13:21:21.112693)  can0  041107C0   [1]  07
 (2025-11-03 13:21:21.113593)  can0  08308180   [0] 
 (2025-11-03 13:21:21.113821)  can0  04110500   [0] 
 (2025-11-03 13:21:21.114834)  can0  08308007   [8]  01 39 00 9F C2 0A 08 00
 (2025-11-03 13:21:21.115036)  can0  04110507   [8]  01 39 00 9F C2 0A 08 00
 (2025-11-03 13:21:21.115964)  can0  08308080   [8]  20 17 0D 00 00 00 00 00
 (2025-11-03 13:21:21.116208)  can0  08308081   [8]  00 0B 11 CA 4E 18 0E 44
 (2025-11-03 13:21:21.116581)  can0  08308082   [8]  44 52 2F 74 65 73 74 5F
 (2025-11-03 13:21:21.116809)  can0  08308083   [8]  64 69 72 5F 31 02 00 0B
 (2025-11-03 13:21:21.117077)  can0  08308084   [8]  74 65 73 74 5F 66 69 6C
 (2025-11-03 13:21:21.117377)  can0  08308085   [8]  65 5F 32 00 0B 74 65 73
 (2025-11-03 13:21:21.117694)  can0  08308086   [8]  74 5F 66 69 6C 65 5F 31
 (2025-11-03 13:21:21.117848)  can0  08308087   [2]  72 AA
 (2025-11-03 13:21:21.118082)  can0  08308300   [0] 
 (2025-11-03 13:21:21.118263)  can0  041107C0   [1]  FF
 (2025-11-03 13:21:21.119045)  can0  08308180   [0] 
 (2025-11-03 13:21:21.119229)  can0  04110500   [0] 
 (2025-11-03 13:21:21.120078)  can0  08308002   [8]  01 13 00 A0 C2 0A 08 00
 (2025-11-03 13:21:21.120260)  can0  04110502   [8]  01 13 00 A0 C2 0A 08 00
 (2025-11-03 13:21:21.121182)  can0  08308080   [8]  20 01 07 00 00 00 00 00
 (2025-11-03 13:21:21.121544)  can0  08308081   [8]  00 0B 11 CA 53 50 18 0A
 (2025-11-03 13:21:21.121767)  can0  08308082   [4]  C0 77 C4 09
 (2025-11-03 13:21:21.121958)  can0  08308300   [0] 
 (2025-11-03 13:21:21.122159)  can0  041107C0   [1]  07
 (2025-11-03 13:21:21.122826)  can0  08308180   [0] 
 (2025-11-03 13:21:21.123036)  can0  04110500   [0] 
 (2025-11-03 13:21:21.134040)  can0  04110402   [8]  71 15 00 78 C0 0A 18 00
 (2025-11-03 13:21:21.134991)  can0  08308102   [8]  71 15 00 78 C0 0A 18 00
 (2025-11-03 13:21:21.135256)  can0  04110480   [8]  2F 17 0C 00 00 0E 44 44
 (2025-11-03 13:21:21.135316)  can0  04110481   [8]  52 2F 74 65 73 74 5F 64
 (2025-11-03 13:21:21.135371)  can0  04110482   [6]  69 72 5F 32 C8 98
 (2025-11-03 13:21:21.135435)  can0  04110700   [0] 
 (2025-11-03 13:21:21.136619)  can0  083083C0   [1]  07
 (2025-11-03 13:21:21.136816)  can0  04110580   [0] 
 (2025-11-03 13:21:21.137582)  can0  08308100   [0] 
 (2025-11-03 13:21:21.285331)  can0       720   [1]  7F
 (2025-11-03 13:21:21.507764)  can0  08308002   [8]  01 13 00 A1 C2 0A 08 00
 (2025-11-03 13:21:21.508213)  can0  04110502   [8]  01 13 00 A1 C2 0A 08 00
 (2025-11-03 13:21:21.510222)  can0  08308080   [8]  20 01 01 00 00 00 00 00
 (2025-11-03 13:21:21.510697)  can0  08308081   [8]  00 0B 12 48 F8 27 18 0A
 (2025-11-03 13:21:21.510854)  can0  08308082   [4]  C0 78 7B 1C
 (2025-11-03 13:21:21.511064)  can0  08308300   [0] 
 (2025-11-03 13:21:21.511245)  can0  041107C0   [1]  07
 (2025-11-03 13:21:21.512017)  can0  08308180   [0] 
 (2025-11-03 13:21:21.512252)  can0  04110500   [0] 
 (2025-11-03 13:21:21.609497)  can0  08308002   [8]  01 13 00 A2 C2 0A 08 00
 (2025-11-03 13:21:21.610073)  can0  04110502   [8]  01 13 00 A2 C2 0A 08 00
 (2025-11-03 13:21:21.611814)  can0  08308080   [8]  20 01 03 00 00 00 00 00
 (2025-11-03 13:21:21.612062)  can0  08308081   [8]  00 0B 12 4A 43 CB 18 0A
 (2025-11-03 13:21:21.612371)  can0  08308082   [4]  C0 78 BD 84
 (2025-11-03 13:21:21.612627)  can0  08308300   [0] 
 (2025-11-03 13:21:21.612839)  can0  041107C0   [1]  07
 (2025-11-03 13:21:21.613753)  can0  08308180   [0] 
 (2025-11-03 13:21:21.613955)  can0  04110500   [0] 
 (2025-11-03 13:21:21.614950)  can0  08308003   [8]  01 1F 00 A3 C2 0A 08 00
 (2025-11-03 13:21:21.615161)  can0  04110503   [8]  01 1F 00 A3 C2 0A 08 00
 (2025-11-03 13:21:21.616096)  can0  08308080   [8]  20 17 0D 00 00 00 00 00
 (2025-11-03 13:21:21.616451)  can0  08308081   [8]  00 0B 12 4A 4D D3 0E 44
 (2025-11-03 13:21:21.616726)  can0  08308082   [8]  44 52 2F 74 65 73 74 5F
 (2025-11-03 13:21:21.616965)  can0  08308083   [8]  64 69 72 5F 32 00 CF 7D
 (2025-11-03 13:21:21.617147)  can0  08308300   [0] 
 (2025-11-03 13:21:21.617346)  can0  041107C0   [1]  0F
 (2025-11-03 13:21:21.618113)  can0  08308180   [0] 
 (2025-11-03 13:21:21.618313)  can0  04110500   [0] 
 (2025-11-03 13:21:21.619131)  can0  08308002   [8]  01 13 00 A4 C2 0A 08 00
 (2025-11-03 13:21:21.619325)  can0  04110502   [8]  01 13 00 A4 C2 0A 08 00
 (2025-11-03 13:21:21.620225)  can0  08308080   [8]  20 01 07 00 00 00 00 00
 (2025-11-03 13:21:21.620692)  can0  08308081   [8]  00 0B 12 4A 52 F1 18 0A
 (2025-11-03 13:21:21.620827)  can0  08308082   [4]  C0 78 F4 44
 (2025-11-03 13:21:21.621031)  can0  08308300   [0] 
 (2025-11-03 13:21:21.621244)  can0  041107C0   [1]  07
 (2025-11-03 13:21:21.621943)  can0  08308180   [0] 
 (2025-11-03 13:21:21.622175)  can0  04110500   [0] 
 (2025-11-03 13:21:21.633285)  can0  04110402   [8]  73 15 00 79 C0 0A 18 00
 (2025-11-03 13:21:21.634233)  can0  08308102   [8]  73 15 00 79 C0 0A 18 00
 (2025-11-03 13:21:21.634517)  can0  04110480   [8]  2F 17 0C 00 00 0E 44 44
 (2025-11-03 13:21:21.634602)  can0  04110481   [8]  52 2F 74 65 73 74 5F 64
 (2025-11-03 13:21:21.634706)  can0  04110482   [6]  69 72 5F 31 9D F0
 (2025-11-03 13:21:21.634761)  can0  04110700   [0] 
 (2025-11-03 13:21:21.635930)  can0  083083C0   [1]  07
 (2025-11-03 13:21:21.636174)  can0  04110580   [0] 
 (2025-11-03 13:21:21.636806)  can0  08308100   [0] 
 (2025-11-03 13:21:22.008153)  can0  08308002   [8]  01 13 00 A5 C2 0A 08 00
 (2025-11-03 13:21:22.008690)  can0  04110502   [8]  01 13 00 A5 C2 0A 08 00
 (2025-11-03 13:21:22.010236)  can0  08308080   [8]  20 01 01 00 00 00 00 00
 (2025-11-03 13:21:22.010696)  can0  08308081   [8]  00 0B 12 C8 F8 13 18 0A
 (2025-11-03 13:21:22.010861)  can0  08308082   [4]  C0 79 22 97
 (2025-11-03 13:21:22.011098)  can0  08308300   [0] 
 (2025-11-03 13:21:22.011285)  can0  041107C0   [1]  07
 (2025-11-03 13:21:22.012297)  can0  08308180   [0] 
 (2025-11-03 13:21:22.012519)  can0  04110500   [0] 
 (2025-11-03 13:21:22.109247)  can0  08308002   [8]  01 13 00 A6 C2 0A 08 00
 (2025-11-03 13:21:22.109794)  can0  04110502   [8]  01 13 00 A6 C2 0A 08 00
 (2025-11-03 13:21:22.112180)  can0  08308080   [8]  20 01 03 00 00 00 00 00
 (2025-11-03 13:21:22.112688)  can0  08308081   [8]  00 0B 12 CA 44 55 18 0A
 (2025-11-03 13:21:22.112853)  can0  08308082   [4]  C0 79 40 84
 (2025-11-03 13:21:22.113108)  can0  08308300   [0] 
 (2025-11-03 13:21:22.113316)  can0  041107C0   [1]  07
 (2025-11-03 13:21:22.114062)  can0  08308180   [0] 
 (2025-11-03 13:21:22.114270)  can0  04110500   [0] 
 (2025-11-03 13:21:22.115141)  can0  08308007   [8]  01 39 00 A7 C2 0A 08 00
 (2025-11-03 13:21:22.115353)  can0  04110507   [8]  01 39 00 A7 C2 0A 08 00
 (2025-11-03 13:21:22.116270)  can0  08308080   [8]  20 17 0D 00 00 00 00 00
 (2025-11-03 13:21:22.116698)  can0  08308081   [8]  00 0B 12 CA 4E 96 0E 44
 (2025-11-03 13:21:22.116888)  can0  08308082   [8]  44 52 2F 74 65 73 74 5F
 (2025-11-03 13:21:22.117169)  can0  08308083   [8]  64 69 72 5F 31 02 00 0B
 (2025-11-03 13:21:22.117483)  can0  08308084   [8]  74 65 73 74 5F 66 69 6C
 (2025-11-03 13:21:22.117749)  can0  08308085   [8]  65 5F 32 00 0B 74 65 73
 (2025-11-03 13:21:22.117988)  can0  08308086   [8]  74 5F 66 69 6C 65 5F 31
 (2025-11-03 13:21:22.118175)  can0  08308087   [2]  C4 D2
 (2025-11-03 13:21:22.118492)  can0  08308300   [0] 
 (2025-11-03 13:21:22.118683)  can0  041107C0   [1]  FF
 (2025-11-03 13:21:22.119576)  can0  08308180   [0] 
 (2025-11-03 13:21:22.119786)  can0  04110500   [0] 
 (2025-11-03 13:21:22.120758)  can0  08308002   [8]  01 13 00 A8 C2 0A 08 00
 (2025-11-03 13:21:22.120964)  can0  04110502   [8]  01 13 00 A8 C2 0A 08 00
 (2025-11-03 13:21:22.121961)  can0  08308080   [8]  20 01 07 00 00 00 00 00
 (2025-11-03 13:21:22.122202)  can0  08308081   [8]  00 0B 12 CA 53 C2 18 0A
 (2025-11-03 13:21:22.122505)  can0  08308082   [4]  C0 79 40 CD
 (2025-11-03 13:21:22.122727)  can0  08308300   [0] 
 (2025-11-03 13:21:22.122915)  can0  041107C0   [1]  07
 (2025-11-03 13:21:22.123710)  can0  08308180   [0] 
 (2025-11-03 13:21:22.123889)  can0  04110500   [0] 
 (2025-11-03 13:21:22.135086)  can0  04110404   [8]  75 21 00 7A C0 0A 18 00
 (2025-11-03 13:21:22.136007)  can0  08308104   [8]  75 21 00 7A C0 0A 18 00
 (2025-11-03 13:21:22.136274)  can0  04110480   [8]  2F 17 03 00 00 0E 44 44
 (2025-11-03 13:21:22.136371)  can0  04110481   [8]  52 2F 74 65 73 74 5F 64
 (2025-11-03 13:21:22.136415)  can0  04110482   [8]  69 72 5F 31 0B 74 65 73
 (2025-11-03 13:21:22.136494)  can0  04110483   [8]  74 5F 66 69 6C 65 5F 31
 (2025-11-03 13:21:22.136574)  can0  04110484   [2]  8F 84
 (2025-11-03 13:21:22.136691)  can0  04110700   [0] 
 (2025-11-03 13:21:22.137962)  can0  083083C0   [1]  1F
 (2025-11-03 13:21:22.138175)  can0  04110580   [0] 
 (2025-11-03 13:21:22.138824)  can0  08308100   [0] 
 (2025-11-03 13:21:22.507801)  can0  08308002   [8]  01 13 00 A9 C2 0A 08 00
 (2025-11-03 13:21:22.508349)  can0  04110502   [8]  01 13 00 A9 C2 0A 08 00
 (2025-11-03 13:21:22.510226)  can0  08308080   [8]  20 01 01 00 00 00 00 00
 (2025-11-03 13:21:22.510699)  can0  08308081   [8]  00 0B 13 48 FA 6F 18 0A
 (2025-11-03 13:21:22.510855)  can0  08308082   [4]  C0 7A 4B FE
 (2025-11-03 13:21:22.511080)  can0  08308300   [0] 
 (2025-11-03 13:21:22.511267)  can0  041107C0   [1]  07
 (2025-11-03 13:21:22.512015)  can0  08308180   [0] 
 (2025-11-03 13:21:22.512213)  can0  04110500   [0] 
 (2025-11-03 13:21:22.609735)  can0  08308002   [8]  01 13 00 AA C2 0A 08 00
 (2025-11-03 13:21:22.610297)  can0  04110502   [8]  01 13 00 AA C2 0A 08 00
 (2025-11-03 13:21:22.611742)  can0  08308080   [8]  20 01 03 00 00 00 00 00
 (2025-11-03 13:21:22.612007)  can0  08308081   [8]  00 0B 13 4A 44 4E 18 0A
 (2025-11-03 13:21:22.612216)  can0  08308082   [4]  C0 7A DC A5
 (2025-11-03 13:21:22.612547)  can0  08308300   [0] 
 (2025-11-03 13:21:22.612773)  can0  041107C0   [1]  07
 (2025-11-03 13:21:22.613698)  can0  08308180   [0] 
 (2025-11-03 13:21:22.613885)  can0  04110500   [0] 
 (2025-11-03 13:21:22.614869)  can0  08308007   [8]  01 3D 00 AB C2 0A 08 00
 (2025-11-03 13:21:22.615092)  can0  04110507   [8]  01 3D 00 AB C2 0A 08 00
 (2025-11-03 13:21:22.616215)  can0  08308080   [8]  20 17 04 00 00 00 00 00
 (2025-11-03 13:21:22.616622)  can0  08308081   [8]  00 0B 13 4A 55 DA 0E 44
 (2025-11-03 13:21:22.616845)  can0  08308082   [8]  44 52 2F 74 65 73 74 5F
 (2025-11-03 13:21:22.617100)  can0  08308083   [8]  64 69 72 5F 31 0B 74 65
 (2025-11-03 13:21:22.617412)  can0  08308084   [8]  73 74 5F 66 69 6C 65 5F
 (2025-11-03 13:21:22.617714)  can0  08308085   [8]  31 00 00 00 00 00 00 04
 (2025-11-03 13:21:22.617950)  can0  08308086   [8]  00 00 00 0B 0C CA 56 BC
 (2025-11-03 13:21:22.618158)  can0  08308087   [6]  00 00 00 00 CD 08
 (2025-11-03 13:21:22.618456)  can0  08308300   [0] 
 (2025-11-03 13:21:22.618700)  can0  041107C0   [1]  FF
 (2025-11-03 13:21:22.619518)  can0  08308180   [0] 
 (2025-11-03 13:21:22.619776)  can0  04110500   [0] 
 (2025-11-03 13:21:22.620735)  can0  08308002   [8]  01 13 00 AC C2 0A 08 00
 (2025-11-03 13:21:22.620967)  can0  04110502   [8]  01 13 00 AC C2 0A 08 00
 (2025-11-03 13:21:22.621895)  can0  08308080   [8]  20 01 07 00 00 00 00 00
 (2025-11-03 13:21:22.622170)  can0  08308081   [8]  00 0B 13 4A 5C D2 18 0A
 (2025-11-03 13:21:22.622491)  can0  08308082   [4]  C0 7A 3A 66
 (2025-11-03 13:21:22.622733)  can0  08308300   [0] 
 (2025-11-03 13:21:22.622929)  can0  041107C0   [1]  07
 (2025-11-03 13:21:22.623702)  can0  08308180   [0] 
 (2025-11-03 13:21:22.623913)  can0  04110500   [0] 
 (2025-11-03 13:21:22.634916)  can0  04110404   [8]  77 21 00 7B C0 0A 18 00
 (2025-11-03 13:21:22.635940)  can0  08308104   [8]  77 21 00 7B C0 0A 18 00
 (2025-11-03 13:21:22.636190)  can0  04110480   [8]  2F 17 03 00 00 0E 44 44
 (2025-11-03 13:21:22.636298)  can0  04110481   [8]  52 2F 74 65 73 74 5F 64
 (2025-11-03 13:21:22.636383)  can0  04110482   [8]  69 72 5F 31 0B 74 65 73
 (2025-11-03 13:21:22.636450)  can0  04110483   [8]  74 5F 66 69 6C 65 5F 32
 (2025-11-03 13:21:22.636493)  can0  04110484   [2]  D8 D2
 (2025-11-03 13:21:22.636716)  can0  04110700   [0] 
 (2025-11-03 13:21:22.637954)  can0  083083C0   [1]  1F
 (2025-11-03 13:21:22.638161)  can0  04110580   [0] 
 (2025-11-03 13:21:22.638799)  can0  08308100   [0] 
 (2025-11-03 13:21:23.008137)  can0  08308002   [8]  01 13 00 AD C2 0A 08 00
 (2025-11-03 13:21:23.008727)  can0  04110502   [8]  01 13 00 AD C2 0A 08 00
 (2025-11-03 13:21:23.010209)  can0  08308080   [8]  20 01 01 00 00 00 00 00
 (2025-11-03 13:21:23.010595)  can0  08308081   [8]  00 0B 13 C8 F9 02 18 0A
 (2025-11-03 13:21:23.010825)  can0  08308082   [4]  C0 7B 61 DB
 (2025-11-03 13:21:23.011049)  can0  08308300   [0] 
 (2025-11-03 13:21:23.011228)  can0  041107C0   [1]  07
 (2025-11-03 13:21:23.011990)  can0  08308180   [0] 
 (2025-11-03 13:21:23.012211)  can0  04110500   [0] 
 (2025-11-03 13:21:23.109622)  can0  08308002   [8]  01 13 00 AE C2 0A 08 00
 (2025-11-03 13:21:23.110202)  can0  04110502   [8]  01 13 00 AE C2 0A 08 00
 (2025-11-03 13:21:23.111714)  can0  08308080   [8]  20 01 03 00 00 00 00 00
 (2025-11-03 13:21:23.111961)  can0  08308081   [8]  00 0B 13 CA 43 D2 18 0A
 (2025-11-03 13:21:23.112208)  can0  08308082   [4]  C0 7B 65 26
 (2025-11-03 13:21:23.112527)  can0  08308300   [0] 
 (2025-11-03 13:21:23.112709)  can0  041107C0   [1]  07
 (2025-11-03 13:21:23.113600)  can0  08308180   [0] 
 (2025-11-03 13:21:23.113804)  can0  04110500   [0] 
 (2025-11-03 13:21:23.114835)  can0  08308007   [8]  01 3D 00 AF C2 0A 08 00
 (2025-11-03 13:21:23.115070)  can0  04110507   [8]  01 3D 00 AF C2 0A 08 00
 (2025-11-03 13:21:23.116008)  can0  08308080   [8]  20 17 04 00 00 00 00 00
 (2025-11-03 13:21:23.116259)  can0  08308081   [8]  00 0B 13 CA 55 A0 0E 44
 (2025-11-03 13:21:23.116701)  can0  08308082   [8]  44 52 2F 74 65 73 74 5F
 (2025-11-03 13:21:23.116856)  can0  08308083   [8]  64 69 72 5F 31 0B 74 65
 (2025-11-03 13:21:23.117110)  can0  08308084   [8]  73 74 5F 66 69 6C 65 5F
 (2025-11-03 13:21:23.117457)  can0  08308085   [8]  32 00 00 00 00 00 00 04
 (2025-11-03 13:21:23.117711)  can0  08308086   [8]  00 00 00 0B 0E 4A 56 D0
 (2025-11-03 13:21:23.117941)  can0  08308087   [6]  00 00 00 00 B9 C9
 (2025-11-03 13:21:23.118104)  can0  08308300   [0] 
 (2025-11-03 13:21:23.118288)  can0  041107C0   [1]  FF
 (2025-11-03 13:21:23.119021)  can0  08308180   [0] 
 (2025-11-03 13:21:23.119216)  can0  04110500   [0] 
 (2025-11-03 13:21:23.120220)  can0  08308002   [8]  01 13 00 B0 C2 0A 08 00
 (2025-11-03 13:21:23.120428)  can0  04110502   [8]  01 13 00 B0 C2 0A 08 00
 (2025-11-03 13:21:23.121420)  can0  08308080   [8]  20 01 07 00 00 00 00 00
 (2025-11-03 13:21:23.121732)  can0  08308081   [8]  00 0B 13 CA 5C 41 18 0A
 (2025-11-03 13:21:23.121937)  can0  08308082   [4]  C0 7B 6F E6
 (2025-11-03 13:21:23.122133)  can0  08308300   [0] 
 (2025-11-03 13:21:23.122310)  can0  041107C0   [1]  07
 (2025-11-03 13:21:23.123012)  can0  08308180   [0] 
 (2025-11-03 13:21:23.123234)  can0  04110500   [0] 
 (2025-11-03 13:21:23.134334)  can0  04110404   [8]  79 25 00 7C C0 0A 18 00
 (2025-11-03 13:21:23.135589)  can0  08308104   [8]  79 25 00 7C C0 0A 18 00
 (2025-11-03 13:21:23.135952)  can0  04110480   [8]  2F 17 01 00 00 0E 44 44
 (2025-11-03 13:21:23.136016)  can0  04110481   [8]  52 2F 74 65 73 74 5F 64
 (2025-11-03 13:21:23.136069)  can0  04110482   [8]  69 72 5F 32 0B 74 65 73
 (2025-11-03 13:21:23.136129)  can0  04110483   [8]  74 5F 66 69 6C 65 5F 31
 (2025-11-03 13:21:23.136192)  can0  04110484   [6]  00 00 04 00 0D 76
 (2025-11-03 13:21:23.136298)  can0  04110700   [0] 
 (2025-11-03 13:21:23.137721)  can0  083083C0   [1]  1F
 (2025-11-03 13:21:23.137944)  can0  04110580   [0] 
 (2025-11-03 13:21:23.138709)  can0  08308100   [0] 
 (2025-11-03 13:21:23.285916)  can0       720   [1]  7F
 (2025-11-03 13:21:23.507812)  can0  08308002   [8]  01 13 00 B1 C2 0A 08 00
 (2025-11-03 13:21:23.508373)  can0  04110502   [8]  01 13 00 B1 C2 0A 08 00
 (2025-11-03 13:21:23.510230)  can0  08308080   [8]  20 01 01 00 00 00 00 00
 (2025-11-03 13:21:23.510690)  can0  08308081   [8]  00 0B 14 48 FA FA 18 0A
 (2025-11-03 13:21:23.510855)  can0  08308082   [4]  C0 7C A8 46
 (2025-11-03 13:21:23.511078)  can0  08308300   [0] 
 (2025-11-03 13:21:23.511254)  can0  041107C0   [1]  07
 (2025-11-03 13:21:23.512018)  can0  08308180   [0] 
 (2025-11-03 13:21:23.512228)  can0  04110500   [0] 
 (2025-11-03 13:21:23.609050)  can0  08308002   [8]  01 13 00 B2 C2 0A 08 00
 (2025-11-03 13:21:23.609590)  can0  04110502   [8]  01 13 00 B2 C2 0A 08 00
 (2025-11-03 13:21:23.611033)  can0  08308080   [8]  20 01 03 00 00 00 00 00
 (2025-11-03 13:21:23.611397)  can0  08308081   [8]  00 0B 14 4A 46 1D 18 0A
 (2025-11-03 13:21:23.611707)  can0  08308082   [4]  C0 7C 4A 60
 (2025-11-03 13:21:23.611869)  can0  08308300   [0] 
 (2025-11-03 13:21:23.612079)  can0  041107C0   [1]  07
 (2025-11-03 13:21:23.612872)  can0  08308180   [0] 
 (2025-11-03 13:21:23.613062)  can0  04110500   [0] 
 (2025-11-03 13:21:23.614000)  can0  08308002   [8]  01 13 00 B3 C2 0A 08 00
 (2025-11-03 13:21:23.614268)  can0  04110502   [8]  01 13 00 B3 C2 0A 08 00
 (2025-11-03 13:21:23.615238)  can0  08308080   [8]  20 01 07 00 00 00 00 00
 (2025-11-03 13:21:23.615627)  can0  08308081   [8]  00 0B 14 4A 5A 8D 18 0A
 (2025-11-03 13:21:23.615839)  can0  08308082   [4]  C0 7C 28 A9
 (2025-11-03 13:21:23.616044)  can0  08308300   [0] 
 (2025-11-03 13:21:23.616216)  can0  041107C0   [1]  07
 (2025-11-03 13:21:23.617144)  can0  08308180   [0] 
 (2025-11-03 13:21:23.617355)  can0  04110500   [0] 
 (2025-11-03 13:21:23.623049)  can0  04110407   [8]  7B 3E 00 7D C0 0A 18 00
 (2025-11-03 13:21:23.623947)  can0  08308107   [8]  7B 3E 00 7D C0 0A 18 00
 (2025-11-03 13:21:23.624156)  can0  04110480   [8]  2F 17 0E 00 00 00 08 0E
 (2025-11-03 13:21:23.624326)  can0  04110481   [8]  44 44 52 2F 74 65 73 74
 (2025-11-03 13:21:23.624395)  can0  04110482   [8]  5F 64 69 72 5F 31 0B 74
 (2025-11-03 13:21:23.624488)  can0  04110483   [8]  65 73 74 5F 66 69 6C 65
 (2025-11-03 13:21:23.624549)  can0  04110484   [8]  5F 31 0E 44 44 52 2F 74
 (2025-11-03 13:21:23.624591)  can0  04110485   [8]  65 73 74 5F 64 69 72 5F
 (2025-11-03 13:21:23.624717)  can0  04110486   [8]  32 0B 74 65 73 74 5F 66
 (2025-11-03 13:21:23.624850)  can0  04110487   [7]  69 6C 65 5F 31 04 D3
 (2025-11-03 13:21:23.625002)  can0  04110700   [0] 
 (2025-11-03 13:21:23.626617)  can0  083083C0   [1]  FF
 (2025-11-03 13:21:23.626881)  can0  04110580   [0] 
 (2025-11-03 13:21:23.627629)  can0  08308100   [0] 
 (2025-11-03 13:21:24.008182)  can0  08308002   [8]  01 13 00 B4 C2 0A 08 00
 (2025-11-03 13:21:24.008777)  can0  04110502   [8]  01 13 00 B4 C2 0A 08 00
 (2025-11-03 13:21:24.010228)  can0  08308080   [8]  20 01 01 00 00 00 00 00
 (2025-11-03 13:21:24.010623)  can0  08308081   [8]  00 0B 14 C8 FE E3 18 0A
 (2025-11-03 13:21:24.010859)  can0  08308082   [4]  C0 7D 0B 54
 (2025-11-03 13:21:24.011085)  can0  08308300   [0] 
 (2025-11-03 13:21:24.011270)  can0  041107C0   [1]  07
 (2025-11-03 13:21:24.012032)  can0  08308180   [0] 
 (2025-11-03 13:21:24.012237)  can0  04110500   [0] 
 (2025-11-03 13:21:24.107878)  can0  08308002   [8]  01 13 00 B5 C2 0A 08 00
 (2025-11-03 13:21:24.108424)  can0  04110502   [8]  01 13 00 B5 C2 0A 08 00
 (2025-11-03 13:21:24.110278)  can0  08308080   [8]  20 01 03 00 00 00 00 00
 (2025-11-03 13:21:24.110721)  can0  08308081   [8]  00 0B 14 CA 59 F9 18 0A
 (2025-11-03 13:21:24.110893)  can0  08308082   [4]  C0 7D 95 B5
 (2025-11-03 13:21:24.111108)  can0  08308300   [0] 
 (2025-11-03 13:21:24.111324)  can0  041107C0   [1]  07
 (2025-11-03 13:21:24.112062)  can0  08308180   [0] 
 (2025-11-03 13:21:24.112269)  can0  04110500   [0] 
 (2025-11-03 13:21:24.308341)  can0  08308002   [8]  01 13 00 B6 C2 0A 08 00
 (2025-11-03 13:21:24.308821)  can0  04110502   [8]  01 13 00 B6 C2 0A 08 00
 (2025-11-03 13:21:24.310884)  can0  08308080   [8]  20 01 07 00 00 00 00 00
 (2025-11-03 13:21:24.311179)  can0  08308081   [8]  00 0B 14 FC AE 76 18 0A
 (2025-11-03 13:21:24.311497)  can0  08308082   [4]  C0 7D 9D 20
 (2025-11-03 13:21:24.311735)  can0  08308300   [0] 
 (2025-11-03 13:21:24.311945)  can0  041107C0   [1]  07
 (2025-11-03 13:21:24.312840)  can0  08308180   [0] 
 (2025-11-03 13:21:24.313050)  can0  04110500   [0] 
 (2025-11-03 13:21:24.319504)  can0  04110402   [8]  7D 15 00 7E C0 0A 18 00
 (2025-11-03 13:21:24.320560)  can0  08308102   [8]  7D 15 00 7E C0 0A 18 00
 (2025-11-03 13:21:24.320860)  can0  04110480   [8]  2F 17 0C 00 00 0E 44 44
 (2025-11-03 13:21:24.320932)  can0  04110481   [8]  52 2F 74 65 73 74 5F 64
 (2025-11-03 13:21:24.320974)  can0  04110482   [6]  69 72 5F 32 86 83
 (2025-11-03 13:21:24.321037)  can0  04110700   [0] 
 (2025-11-03 13:21:24.322170)  can0  083083C0   [1]  07
 (2025-11-03 13:21:24.322401)  can0  04110580   [0] 
 (2025-11-03 13:21:24.323049)  can0  08308100   [0] 
 (2025-11-03 13:21:24.708197)  can0  08308002   [8]  01 13 00 B7 C2 0A 08 00
 (2025-11-03 13:21:24.708805)  can0  04110502   [8]  01 13 00 B7 C2 0A 08 00
 (2025-11-03 13:21:24.710227)  can0  08308080   [8]  20 01 01 00 00 00 00 00
 (2025-11-03 13:21:24.710598)  can0  08308081   [8]  00 0B 15 7C 2E 03 18 0A
 (2025-11-03 13:21:24.710843)  can0  08308082   [4]  C0 7E BE D5
 (2025-11-03 13:21:24.711041)  can0  08308300   [0] 
 (2025-11-03 13:21:24.711353)  can0  041107C0   [1]  07
 (2025-11-03 13:21:24.712150)  can0  08308180   [0] 
 (2025-11-03 13:21:24.712467)  can0  04110500   [0] 
 (2025-11-03 13:21:24.809604)  can0  08308002   [8]  01 13 00 B8 C2 0A 08 00
 (2025-11-03 13:21:24.810186)  can0  04110502   [8]  01 13 00 B8 C2 0A 08 00
 (2025-11-03 13:21:24.811778)  can0  08308080   [8]  20 01 03 00 00 00 00 00
 (2025-11-03 13:21:24.812054)  can0  08308081   [8]  00 0B 15 7D 7B 24 18 0A
 (2025-11-03 13:21:24.812363)  can0  08308082   [4]  C0 7E DC DE
 (2025-11-03 13:21:24.812623)  can0  08308300   [0] 
 (2025-11-03 13:21:24.812848)  can0  041107C0   [1]  07
 (2025-11-03 13:21:24.813759)  can0  08308180   [0] 
 (2025-11-03 13:21:24.813984)  can0  04110500   [0] 
 (2025-11-03 13:21:24.814942)  can0  08308007   [8]  01 39 00 B9 C2 0A 08 00
 (2025-11-03 13:21:24.815161)  can0  04110507   [8]  01 39 00 B9 C2 0A 08 00
 (2025-11-03 13:21:24.816287)  can0  08308080   [8]  20 17 0D 00 00 00 00 00
 (2025-11-03 13:21:24.816695)  can0  08308081   [8]  00 0B 15 7D 85 79 0E 44
 (2025-11-03 13:21:24.816895)  can0  08308082   [8]  44 52 2F 74 65 73 74 5F
 (2025-11-03 13:21:24.817175)  can0  08308083   [8]  64 69 72 5F 32 02 00 0B
 (2025-11-03 13:21:24.817499)  can0  08308084   [8]  74 65 73 74 5F 66 69 6C
 (2025-11-03 13:21:24.817752)  can0  08308085   [8]  65 5F 31 00 0B 74 65 73
 (2025-11-03 13:21:24.818002)  can0  08308086   [8]  74 5F 66 69 6C 65 5F 31
 (2025-11-03 13:21:24.818164)  can0  08308087   [2]  44 1B
 (2025-11-03 13:21:24.818516)  can0  08308300   [0] 
 (2025-11-03 13:21:24.818766)  can0  041107C0   [1]  FF
 (2025-11-03 13:21:24.819706)  can0  08308180   [0] 
 (2025-11-03 13:21:24.819912)  can0  04110500   [0] 
 (2025-11-03 13:21:24.820796)  can0  08308002   [8]  01 13 00 BA C2 0A 08 00
 (2025-11-03 13:21:24.820983)  can0  04110502   [8]  01 13 00 BA C2 0A 08 00
 (2025-11-03 13:21:24.821897)  can0  08308080   [8]  20 01 07 00 00 00 00 00
 (2025-11-03 13:21:24.822166)  can0  08308081   [8]  00 0B 15 7D 8A A0 18 0A
 (2025-11-03 13:21:24.822458)  can0  08308082   [4]  C0 7E 98 0B
 (2025-11-03 13:21:24.822703)  can0  08308300   [0] 
 (2025-11-03 13:21:24.822869)  can0  041107C0   [1]  07
 (2025-11-03 13:21:24.823709)  can0  08308180   [0] 
 (2025-11-03 13:21:24.823921)  can0  04110500   [0] 
 (2025-11-03 13:21:24.835289)  can0  04110402   [8]  7F 15 00 7F C0 0A 18 00
 (2025-11-03 13:21:24.836234)  can0  08308102   [8]  7F 15 00 7F C0 0A 18 00
 (2025-11-03 13:21:24.836478)  can0  04110480   [8]  2F 17 0C 00 00 0E 44 44
 (2025-11-03 13:21:24.836578)  can0  04110481   [8]  52 2F 74 65 73 74 5F 64
 (2025-11-03 13:21:24.836692)  can0  04110482   [6]  69 72 5F 31 D3 EB
 (2025-11-03 13:21:24.836738)  can0  04110700   [0] 
 (2025-11-03 13:21:24.837890)  can0  083083C0   [1]  07
 (2025-11-03 13:21:24.838139)  can0  04110580   [0] 
 (2025-11-03 13:21:24.838780)  can0  08308100   [0] 
 (2025-11-03 13:21:25.207837)  can0  08308002   [8]  01 13 00 BB C2 0A 08 00
 (2025-11-03 13:21:25.208365)  can0  04110502   [8]  01 13 00 BB C2 0A 08 00
 (2025-11-03 13:21:25.210288)  can0  08308080   [8]  20 01 01 00 00 00 00 00
 (2025-11-03 13:21:25.210699)  can0  08308081   [8]  00 0B 15 FC 2B AF 18 0A
 (2025-11-03 13:21:25.210926)  can0  08308082   [4]  C0 7F 4F 8E
 (2025-11-03 13:21:25.211148)  can0  08308300   [0] 
 (2025-11-03 13:21:25.211340)  can0  041107C0   [1]  07
 (2025-11-03 13:21:25.212367)  can0  08308180   [0] 
 (2025-11-03 13:21:25.212569)  can0  04110500   [0] 
 (2025-11-03 13:21:25.285368)  can0       720   [1]  7F
 (2025-11-03 13:21:25.309629)  can0  08308002   [8]  01 13 00 BC C2 0A 08 00
 (2025-11-03 13:21:25.310144)  can0  04110502   [8]  01 13 00 BC C2 0A 08 00
 (2025-11-03 13:21:25.312435)  can0  08308080   [8]  20 01 03 00 00 00 00 00
 (2025-11-03 13:21:25.312745)  can0  08308081   [8]  00 0B 15 FD 77 26 18 0A
 (2025-11-03 13:21:25.313002)  can0  08308082   [4]  C0 7F 4F DD
 (2025-11-03 13:21:25.313209)  can0  08308300   [0] 
 (2025-11-03 13:21:25.313396)  can0  041107C0   [1]  07
 (2025-11-03 13:21:25.314451)  can0  08308180   [0] 
 (2025-11-03 13:21:25.314695)  can0  04110500   [0] 
 (2025-11-03 13:21:25.315704)  can0  08308007   [8]  01 39 00 BD C2 0A 08 00
 (2025-11-03 13:21:25.315991)  can0  04110507   [8]  01 39 00 BD C2 0A 08 00
 (2025-11-03 13:21:25.317091)  can0  08308080   [8]  20 17 0D 00 00 00 00 00
 (2025-11-03 13:21:25.317406)  can0  08308081   [8]  00 0B 15 FD 81 82 0E 44
 (2025-11-03 13:21:25.317725)  can0  08308082   [8]  44 52 2F 74 65 73 74 5F
 (2025-11-03 13:21:25.317953)  can0  08308083   [8]  64 69 72 5F 31 02 00 0B
 (2025-11-03 13:21:25.318210)  can0  08308084   [8]  74 65 73 74 5F 66 69 6C
 (2025-11-03 13:21:25.318522)  can0  08308085   [8]  65 5F 32 00 0B 74 65 73
 (2025-11-03 13:21:25.318782)  can0  08308086   [8]  74 5F 66 69 6C 65 5F 31
 (2025-11-03 13:21:25.318981)  can0  08308087   [2]  63 E8
 (2025-11-03 13:21:25.319210)  can0  08308300   [0] 
 (2025-11-03 13:21:25.319399)  can0  041107C0   [1]  FF
 (2025-11-03 13:21:25.320120)  can0  08308180   [0] 
 (2025-11-03 13:21:25.320307)  can0  04110500   [0] 
 (2025-11-03 13:21:25.321146)  can0  08308002   [8]  01 13 00 BE C2 0A 08 00
 (2025-11-03 13:21:25.321349)  can0  04110502   [8]  01 13 00 BE C2 0A 08 00
 (2025-11-03 13:21:25.322216)  can0  08308080   [8]  20 01 07 00 00 00 00 00
 (2025-11-03 13:21:25.322582)  can0  08308081   [8]  00 0B 15 FD 86 CD 18 0A
 (2025-11-03 13:21:25.322804)  can0  08308082   [4]  C0 7F 77 2D
 (2025-11-03 13:21:25.323008)  can0  08308300   [0] 
 (2025-11-03 13:21:25.323185)  can0  041107C0   [1]  07
 (2025-11-03 13:21:25.323879)  can0  08308180   [0] 
 (2025-11-03 13:21:25.324077)  can0  04110500   [0] 
 (2025-11-03 13:21:25.343017)  can0  04110407   [8]  81 3E 00 80 C0 0A 18 00
 (2025-11-03 13:21:25.343978)  can0  08308107   [8]  81 3E 00 80 C0 0A 18 00
 (2025-11-03 13:21:25.344288)  can0  04110480   [8]  2F 17 0F 00 00 00 09 0E
 (2025-11-03 13:21:25.344359)  can0  04110481   [8]  44 44 52 2F 74 65 73 74
 (2025-11-03 13:21:25.344460)  can0  04110482   [8]  5F 64 69 72 5F 31 0B 74
 (2025-11-03 13:21:25.344580)  can0  04110483   [8]  65 73 74 5F 66 69 6C 65
 (2025-11-03 13:21:25.344698)  can0  04110484   [8]  5F 32 0E 44 44 52 2F 74
 (2025-11-03 13:21:25.344752)  can0  04110485   [8]  65 73 74 5F 64 69 72 5F
 (2025-11-03 13:21:25.344830)  can0  04110486   [8]  32 0B 74 65 73 74 5F 66
 (2025-11-03 13:21:25.344956)  can0  04110487   [7]  69 6C 65 5F 32 E7 A2
 (2025-11-03 13:21:25.345075)  can0  04110700   [0] 
 (2025-11-03 13:21:25.346715)  can0  083083C0   [1]  FF
 (2025-11-03 13:21:25.346969)  can0  04110580   [0] 
 (2025-11-03 13:21:25.347700)  can0  08308100   [0] 
 (2025-11-03 13:21:25.707846)  can0  08308002   [8]  01 13 00 BF C2 0A 08 00
 (2025-11-03 13:21:25.708470)  can0  04110502   [8]  01 13 00 BF C2 0A 08 00
 (2025-11-03 13:21:25.710259)  can0  08308080   [8]  20 01 01 00 00 00 00 00
 (2025-11-03 13:21:25.710703)  can0  08308081   [8]  00 0B 16 7C 33 EF 18 0A
 (2025-11-03 13:21:25.710868)  can0  08308082   [4]  C0 80 53 E7
 (2025-11-03 13:21:25.711094)  can0  08308300   [0] 
 (2025-11-03 13:21:25.711293)  can0  041107C0   [1]  07
 (2025-11-03 13:21:25.712213)  can0  08308180   [0] 
 (2025-11-03 13:21:25.712430)  can0  04110500   [0] 
 (2025-11-03 13:21:25.808227)  can0  08308002   [8]  01 13 00 C0 C2 0A 08 00
 (2025-11-03 13:21:25.808797)  can0  04110502   [8]  01 13 00 C0 C2 0A 08 00
 (2025-11-03 13:21:25.810299)  can0  08308080   [8]  20 01 03 00 00 00 00 00
 (2025-11-03 13:21:25.810700)  can0  08308081   [8]  00 0B 16 7D 90 ED 18 0A
 (2025-11-03 13:21:25.810931)  can0  08308082   [4]  C0 80 9E 52
 (2025-11-03 13:21:25.811135)  can0  08308300   [0] 
 (2025-11-03 13:21:25.811329)  can0  041107C0   [1]  07
 (2025-11-03 13:21:25.812085)  can0  08308180   [0] 
 (2025-11-03 13:21:25.812315)  can0  04110500   [0] 
 (2025-11-03 13:21:26.007822)  can0  08308002   [8]  01 13 00 C1 C2 0A 08 00
 (2025-11-03 13:21:26.008289)  can0  04110502   [8]  01 13 00 C1 C2 0A 08 00
 (2025-11-03 13:21:26.010248)  can0  08308080   [8]  20 01 07 00 00 00 00 00
 (2025-11-03 13:21:26.010705)  can0  08308081   [8]  00 0B 16 AF E1 CD 18 0A
 (2025-11-03 13:21:26.010859)  can0  08308082   [4]  C0 80 E2 73
 (2025-11-03 13:21:26.011072)  can0  08308300   [0] 
 (2025-11-03 13:21:26.011262)  can0  041107C0   [1]  07
 (2025-11-03 13:21:26.012009)  can0  08308180   [0] 
 (2025-11-03 13:21:26.012330)  can0  04110500   [0] 
 (2025-11-03 13:21:26.019844)  can0  04110402   [8]  83 15 00 81 C0 0A 18 00
 (2025-11-03 13:21:26.020856)  can0  08308102   [8]  83 15 00 81 C0 0A 18 00
 (2025-11-03 13:21:26.021138)  can0  04110480   [8]  2F 17 0C 00 00 0E 44 44
 (2025-11-03 13:21:26.021199)  can0  04110481   [8]  52 2F 74 65 73 74 5F 64
 (2025-11-03 13:21:26.021252)  can0  04110482   [6]  69 72 5F 32 B7 7B
 (2025-11-03 13:21:26.021305)  can0  04110700   [0] 
 (2025-11-03 13:21:26.022503)  can0  083083C0   [1]  07
 (2025-11-03 13:21:26.022764)  can0  04110580   [0] 
 (2025-11-03 13:21:26.023549)  can0  08308100   [0] 
 (2025-11-03 13:21:26.407869)  can0  08308002   [8]  01 13 00 C2 C2 0A 08 00
 (2025-11-03 13:21:26.408454)  can0  04110502   [8]  01 13 00 C2 C2 0A 08 00
 (2025-11-03 13:21:26.410773)  can0  08308080   [8]  20 01 01 00 00 00 00 00
 (2025-11-03 13:21:26.411099)  can0  08308081   [8]  00 0B 17 2F 5E 84 18 0A
 (2025-11-03 13:21:26.411421)  can0  08308082   [4]  C0 81 37 43
 (2025-11-03 13:21:26.411721)  can0  08308300   [0] 
 (2025-11-03 13:21:26.411949)  can0  041107C0   [1]  07
 (2025-11-03 13:21:26.412858)  can0  08308180   [0] 
 (2025-11-03 13:21:26.413073)  can0  04110500   [0] 
 (2025-11-03 13:21:26.509650)  can0  08308002   [8]  01 13 00 C3 C2 0A 08 00
 (2025-11-03 13:21:26.519936)  can0  04110502   [8]  01 13 00 C3 C2 0A 08 00
 (2025-11-03 13:21:26.521060)  can0  08308080   [8]  20 01 03 00 00 00 00 00
 (2025-11-03 13:21:26.521432)  can0  08308081   [8]  00 0B 17 30 AC F7 18 0A
 (2025-11-03 13:21:26.521706)  can0  08308082   [4]  C0 81 F6 E6
 (2025-11-03 13:21:26.521879)  can0  08308300   [0] 
 (2025-11-03 13:21:26.522068)  can0  041107C0   [1]  07
 (2025-11-03 13:21:26.522834)  can0  08308180   [0] 
 (2025-11-03 13:21:26.523057)  can0  04110500   [0] 
 (2025-11-03 13:21:26.523928)  can0  0830800A   [8]  01 53 00 C4 C2 0A 08 00
 (2025-11-03 13:21:26.524157)  can0  0411050A   [8]  01 53 00 C4 C2 0A 08 00
 (2025-11-03 13:21:26.525012)  can0  08308080   [8]  20 17 0D 00 00 00 00 00
 (2025-11-03 13:21:26.525254)  can0  08308081   [8]  00 0B 17 30 B7 4B 0E 44
 (2025-11-03 13:21:26.525600)  can0  08308082   [8]  44 52 2F 74 65 73 74 5F
 (2025-11-03 13:21:26.525854)  can0  08308083   [8]  64 69 72 5F 32 04 00 0B
 (2025-11-03 13:21:26.526093)  can0  08308084   [8]  74 65 73 74 5F 66 69 6C
 (2025-11-03 13:21:26.526420)  can0  08308085   [8]  65 5F 32 00 0B 74 65 73
 (2025-11-03 13:21:26.526712)  can0  08308086   [8]  74 5F 66 69 6C 65 5F 32
 (2025-11-03 13:21:26.526915)  can0  08308087   [8]  00 0B 74 65 73 74 5F 66
 (2025-11-03 13:21:26.527153)  can0  08308088   [8]  69 6C 65 5F 31 00 0B 74
 (2025-11-03 13:21:26.527482)  can0  08308089   [8]  65 73 74 5F 66 69 6C 65
 (2025-11-03 13:21:26.542545)  can0  0830808A   [4]  5F 31 5A 0D
 (2025-11-03 13:21:26.542836)  can0  08308300   [0] 
 (2025-11-03 13:21:26.543047)  can0  041107C0   [2]  FF 07
 (2025-11-03 13:21:26.543827)  can0  08308180   [0] 
 (2025-11-03 13:21:26.544052)  can0  04110500   [0] 
 (2025-11-03 13:21:26.544904)  can0  08308002   [8]  01 13 00 C5 C2 0A 08 00
 (2025-11-03 13:21:26.545089)  can0  04110502   [8]  01 13 00 C5 C2 0A 08 00
 (2025-11-03 13:21:26.545942)  can0  08308080   [8]  20 01 07 00 00 00 00 00
 (2025-11-03 13:21:26.546213)  can0  08308081   [8]  00 0B 17 30 BC FC 18 0A
 (2025-11-03 13:21:26.546517)  can0  08308082   [4]  C0 81 5C 39
 (2025-11-03 13:21:26.546744)  can0  08308300   [0] 
 (2025-11-03 13:21:26.546928)  can0  041107C0   [1]  07
 (2025-11-03 13:21:26.547704)  can0  08308180   [0] 
 (2025-11-03 13:21:26.547895)  can0  04110500   [0] 
 (2025-11-03 13:21:26.559944)  can0  04110402   [8]  85 15 00 82 C0 0A 18 00
 (2025-11-03 13:21:26.560832)  can0  08308102   [8]  85 15 00 82 C0 0A 18 00
 (2025-11-03 13:21:26.561125)  can0  04110480   [8]  2F 17 0C 00 00 0E 44 44
 (2025-11-03 13:21:26.561186)  can0  04110481   [8]  52 2F 74 65 73 74 5F 64
 (2025-11-03 13:21:26.561248)  can0  04110482   [6]  69 72 5F 31 28 05
 (2025-11-03 13:21:26.561307)  can0  04110700   [0] 
 (2025-11-03 13:21:26.562511)  can0  083083C0   [1]  07
 (2025-11-03 13:21:26.562791)  can0  04110580   [0] 
 (2025-11-03 13:21:26.563548)  can0  08308100   [0] 
 (2025-11-03 13:21:26.907846)  can0  08308002   [8]  01 13 00 C6 C2 0A 08 00
 (2025-11-03 13:21:26.908460)  can0  04110502   [8]  01 13 00 C6 C2 0A 08 00
 (2025-11-03 13:21:26.910513)  can0  08308080   [8]  20 01 01 00 00 00 00 00
 (2025-11-03 13:21:26.910804)  can0  08308081   [8]  00 0B 17 AF 5E 3B 18 0A
 (2025-11-03 13:21:26.911059)  can0  08308082   [4]  C0 82 80 A5
 (2025-11-03 13:21:26.911343)  can0  08308300   [0] 
 (2025-11-03 13:21:26.911550)  can0  041107C0   [1]  07
 (2025-11-03 13:21:26.912493)  can0  08308180   [0] 
 (2025-11-03 13:21:26.912769)  can0  04110500   [0] 
 (2025-11-03 13:21:27.009229)  can0  08308002   [8]  01 13 00 C7 C2 0A 08 00
 (2025-11-03 13:21:27.009808)  can0  04110502   [8]  01 13 00 C7 C2 0A 08 00
 (2025-11-03 13:21:27.011714)  can0  08308080   [8]  20 01 03 00 00 00 00 00
 (2025-11-03 13:21:27.011993)  can0  08308081   [8]  00 0B 17 B0 A9 63 18 0A
 (2025-11-03 13:21:27.012223)  can0  08308082   [4]  C0 82 E6 4A
 (2025-11-03 13:21:27.012565)  can0  08308300   [0] 
 (2025-11-03 13:21:27.012800)  can0  041107C0   [1]  07
 (2025-11-03 13:21:27.013726)  can0  08308180   [0] 
 (2025-11-03 13:21:27.013944)  can0  04110500   [0] 
 (2025-11-03 13:21:27.014929)  can0  08308005   [8]  01 2C 00 C8 C2 0A 08 00
 (2025-11-03 13:21:27.015202)  can0  04110505   [8]  01 2C 00 C8 C2 0A 08 00
 (2025-11-03 13:21:27.016158)  can0  08308080   [8]  20 17 0D 00 00 00 00 00
 (2025-11-03 13:21:27.016520)  can0  08308081   [8]  00 0B 17 B0 B3 9E 0E 44
 (2025-11-03 13:21:27.016795)  can0  08308082   [8]  44 52 2F 74 65 73 74 5F
 (2025-11-03 13:21:27.017045)  can0  08308083   [8]  64 69 72 5F 31 01 00 0B
 (2025-11-03 13:21:27.017295)  can0  08308084   [8]  74 65 73 74 5F 66 69 6C
 (2025-11-03 13:21:27.017599)  can0  08308085   [5]  65 5F 31 67 85
 (2025-11-03 13:21:27.017808)  can0  08308300   [0] 
 (2025-11-03 13:21:27.017986)  can0  041107C0   [1]  3F
 (2025-11-03 13:21:27.018862)  can0  08308180   [0] 
 (2025-11-03 13:21:27.019060)  can0  04110500   [0] 
 (2025-11-03 13:21:27.019927)  can0  08308002   [8]  01 13 00 C9 C2 0A 08 00
 (2025-11-03 13:21:27.020141)  can0  04110502   [8]  01 13 00 C9 C2 0A 08 00
 (2025-11-03 13:21:27.020998)  can0  08308080   [8]  20 01 07 00 00 00 00 00
 (2025-11-03 13:21:27.021242)  can0  08308081   [8]  00 0B 17 B0 B8 BD 18 0A
 (2025-11-03 13:21:27.021588)  can0  08308082   [4]  C0 82 D2 F6
 (2025-11-03 13:21:27.021753)  can0  08308300   [0] 
 (2025-11-03 13:21:27.021931)  can0  041107C0   [1]  07
 (2025-11-03 13:21:27.022727)  can0  08308180   [0] 
 (2025-11-03 13:21:27.022895)  can0  04110500   [0] 
 (2025-11-03 13:21:27.034495)  can0  04110404   [8]  87 21 00 83 C0 0A 18 00
 (2025-11-03 13:21:27.035432)  can0  08308104   [8]  87 21 00 83 C0 0A 18 00
 (2025-11-03 13:21:27.035769)  can0  04110480   [8]  2F 17 03 00 00 0E 44 44
 (2025-11-03 13:21:27.035869)  can0  04110481   [8]  52 2F 74 65 73 74 5F 64
 (2025-11-03 13:21:27.035915)  can0  04110482   [8]  69 72 5F 32 0B 74 65 73
 (2025-11-03 13:21:27.035969)  can0  04110483   [8]  74 5F 66 69 6C 65 5F 32
 (2025-11-03 13:21:27.036023)  can0  04110484   [2]  F8 EE
 (2025-11-03 13:21:27.036094)  can0  04110700   [0] 
 (2025-11-03 13:21:27.037976)  can0  083083C0   [1]  1F
 (2025-11-03 13:21:27.038229)  can0  04110580   [0] 
 (2025-11-03 13:21:27.039082)  can0  08308100   [0] 
 (2025-11-03 13:21:27.285706)  can0       720   [1]  7F
 (2025-11-03 13:21:27.407968)  can0  08308002   [8]  01 13 00 CA C2 0A 08 00
 (2025-11-03 13:21:27.408559)  can0  04110502   [8]  01 13 00 CA C2 0A 08 00
 (2025-11-03 13:21:27.410274)  can0  08308080   [8]  20 01 01 00 00 00 00 00
 (2025-11-03 13:21:27.410724)  can0  08308081   [8]  00 0B 18 2F 60 8F 18 0A
 (2025-11-03 13:21:27.410896)  can0  08308082   [4]  C0 83 42 65
 (2025-11-03 13:21:27.411123)  can0  08308300   [0] 
 (2025-11-03 13:21:27.411307)  can0  041107C0   [1]  07
 (2025-11-03 13:21:27.412043)  can0  08308180   [0] 
 (2025-11-03 13:21:27.412271)  can0  04110500   [0] 
 (2025-11-03 13:21:27.509623)  can0  08308002   [8]  01 13 00 CB C2 0A 08 00
 (2025-11-03 13:21:27.510212)  can0  04110502   [8]  01 13 00 CB C2 0A 08 00
 (2025-11-03 13:21:27.512460)  can0  08308080   [8]  20 01 03 00 00 00 00 00
 (2025-11-03 13:21:27.512776)  can0  08308081   [8]  00 0B 18 30 AA 44 18 0A
 (2025-11-03 13:21:27.513022)  can0  08308082   [4]  C0 83 8D 1D
 (2025-11-03 13:21:27.513341)  can0  08308300   [0] 
 (2025-11-03 13:21:27.513553)  can0  041107C0   [1]  07
 (2025-11-03 13:21:27.514458)  can0  08308180   [0] 
 (2025-11-03 13:21:27.514715)  can0  04110500   [0] 
 (2025-11-03 13:21:27.515728)  can0  08308007   [8]  01 3D 00 CC C2 0A 08 00
 (2025-11-03 13:21:27.515973)  can0  04110507   [8]  01 3D 00 CC C2 0A 08 00
 (2025-11-03 13:21:27.517207)  can0  08308080   [8]  20 17 04 00 00 00 00 00
 (2025-11-03 13:21:27.517549)  can0  08308081   [8]  00 0B 18 30 BC 90 0E 44
 (2025-11-03 13:21:27.517812)  can0  08308082   [8]  44 52 2F 74 65 73 74 5F
 (2025-11-03 13:21:27.518086)  can0  08308083   [8]  64 69 72 5F 32 0B 74 65
 (2025-11-03 13:21:27.518412)  can0  08308084   [8]  73 74 5F 66 69 6C 65 5F
 (2025-11-03 13:21:27.518708)  can0  08308085   [8]  32 00 00 00 00 00 00 04
 (2025-11-03 13:21:27.518930)  can0  08308086   [8]  00 00 00 09 68 B0 BB 5E
 (2025-11-03 13:21:27.519152)  can0  08308087   [6]  00 00 00 00 E2 A0
 (2025-11-03 13:21:27.519401)  can0  08308300   [0] 
 (2025-11-03 13:21:27.519598)  can0  041107C0   [1]  FF
 (2025-11-03 13:21:27.520439)  can0  08308180   [0] 
 (2025-11-03 13:21:27.520704)  can0  04110500   [0] 
 (2025-11-03 13:21:27.521594)  can0  08308002   [8]  01 13 00 CD C2 0A 08 00
 (2025-11-03 13:21:27.521806)  can0  04110502   [8]  01 13 00 CD C2 0A 08 00
 (2025-11-03 13:21:27.522747)  can0  08308080   [8]  20 01 07 00 00 00 00 00
 (2025-11-03 13:21:27.523020)  can0  08308081   [8]  00 0B 18 30 C3 82 18 0A
 (2025-11-03 13:21:27.523226)  can0  08308082   [4]  C0 83 38 7E
 (2025-11-03 13:21:27.523554)  can0  08308300   [0] 
 (2025-11-03 13:21:27.523795)  can0  041107C0   [1]  07
 (2025-11-03 13:21:27.524599)  can0  08308180   [0] 
 (2025-11-03 13:21:27.524802)  can0  04110500   [0] 
 (2025-11-03 13:21:27.536164)  can0  04110404   [8]  89 21 00 84 C0 0A 18 00
 (2025-11-03 13:21:27.537025)  can0  08308104   [8]  89 21 00 84 C0 0A 18 00
 (2025-11-03 13:21:27.537336)  can0  04110480   [8]  2F 17 03 00 00 0E 44 44
 (2025-11-03 13:21:27.537455)  can0  04110481   [8]  52 2F 74 65 73 74 5F 64
 (2025-11-03 13:21:27.537498)  can0  04110482   [8]  69 72 5F 32 0B 74 65 73
 (2025-11-03 13:21:27.537550)  can0  04110483   [8]  74 5F 66 69 6C 65 5F 32
 (2025-11-03 13:21:27.537608)  can0  04110484   [2]  DD 44
 (2025-11-03 13:21:27.537740)  can0  04110700   [0] 
 (2025-11-03 13:21:27.539810)  can0  083083C0   [1]  1F
 (2025-11-03 13:21:27.540031)  can0  04110580   [0] 
 (2025-11-03 13:21:27.540781)  can0  08308100   [0] 
 (2025-11-03 13:21:27.907873)  can0  08308002   [8]  01 13 00 CE C2 0A 08 00
 (2025-11-03 13:21:27.908716)  can0  04110502   [8]  01 13 00 CE C2 0A 08 00
 (2025-11-03 13:21:27.910300)  can0  08308080   [8]  20 01 01 00 00 00 00 00
 (2025-11-03 13:21:27.910720)  can0  08308081   [8]  00 0B 18 AF 60 EF 18 0A
 (2025-11-03 13:21:27.910909)  can0  08308082   [4]  C0 84 E7 1C
 (2025-11-03 13:21:27.911146)  can0  08308300   [0] 
 (2025-11-03 13:21:27.911370)  can0  041107C0   [1]  07
 (2025-11-03 13:21:27.912136)  can0  08308180   [0] 
 (2025-11-03 13:21:27.912371)  can0  04110500   [0] 
 (2025-11-03 13:21:28.007898)  can0  08308002   [8]  01 13 00 CF C2 0A 08 00
 (2025-11-03 13:21:28.008712)  can0  04110502   [8]  01 13 00 CF C2 0A 08 00
 (2025-11-03 13:21:28.010263)  can0  08308080   [8]  20 01 03 00 00 00 00 00
 (2025-11-03 13:21:28.010704)  can0  08308081   [8]  00 0B 18 B0 A9 FA 18 0A
 (2025-11-03 13:21:28.010868)  can0  08308082   [4]  C0 84 1E CE
 (2025-11-03 13:21:28.011095)  can0  08308300   [0] 
 (2025-11-03 13:21:28.011292)  can0  041107C0   [1]  07
 (2025-11-03 13:21:28.012191)  can0  08308180   [0] 
 (2025-11-03 13:21:28.012396)  can0  04110500   [0] 
 (2025-11-03 13:21:28.109342)  can0  08308007   [8]  01 3D 00 D0 C2 0A 08 00
 (2025-11-03 13:21:28.109888)  can0  04110507   [8]  01 3D 00 D0 C2 0A 08 00
 (2025-11-03 13:21:28.111042)  can0  08308080   [8]  20 17 04 00 00 00 00 00
 (2025-11-03 13:21:28.111320)  can0  08308081   [8]  00 0B 18 B0 BC 54 0E 44
 (2025-11-03 13:21:28.111699)  can0  08308082   [8]  44 52 2F 74 65 73 74 5F
 (2025-11-03 13:21:28.111891)  can0  08308083   [8]  64 69 72 5F 32 0B 74 65
 (2025-11-03 13:21:28.112146)  can0  08308084   [8]  73 74 5F 66 69 6C 65 5F
 (2025-11-03 13:21:28.112475)  can0  08308085   [8]  32 00 00 00 00 00 00 04
 (2025-11-03 13:21:28.112748)  can0  08308086   [8]  00 00 00 09 68 B0 BB 5E
 (2025-11-03 13:21:28.112971)  can0  08308087   [6]  00 00 00 00 90 51
 (2025-11-03 13:21:28.113145)  can0  08308300   [0] 
 (2025-11-03 13:21:28.113322)  can0  041107C0   [1]  FF
 (2025-11-03 13:21:28.114067)  can0  08308180   [0] 
 (2025-11-03 13:21:28.114275)  can0  04110500   [0] 
 (2025-11-03 13:21:28.115165)  can0  08308002   [8]  01 13 00 D1 C2 0A 08 00
 (2025-11-03 13:21:28.115360)  can0  04110502   [8]  01 13 00 D1 C2 0A 08 00
 (2025-11-03 13:21:28.116307)  can0  08308080   [8]  20 01 07 00 00 00 00 00
 (2025-11-03 13:21:28.116705)  can0  08308081   [8]  00 0B 18 B0 C3 38 18 0A
 (2025-11-03 13:21:28.116876)  can0  08308082   [4]  C0 84 AD F0
 (2025-11-03 13:21:28.117111)  can0  08308300   [0] 
 (2025-11-03 13:21:28.117297)  can0  041107C0   [1]  07
 (2025-11-03 13:21:28.118024)  can0  08308180   [0] 
 (2025-11-03 13:21:28.118219)  can0  04110500   [0] 
 (2025-11-03 13:21:28.130227)  can0  04110404   [8]  8B 21 00 85 C0 0A 18 00
 (2025-11-03 13:21:28.131141)  can0  08308104   [8]  8B 21 00 85 C0 0A 18 00
 (2025-11-03 13:21:28.131417)  can0  04110480   [8]  2F 17 03 00 00 0E 44 44
 (2025-11-03 13:21:28.131489)  can0  04110481   [8]  52 2F 74 65 73 74 5F 64
 (2025-11-03 13:21:28.131570)  can0  04110482   [8]  69 72 5F 32 0B 74 65 73
 (2025-11-03 13:21:28.131630)  can0  04110483   [8]  74 5F 66 69 6C 65 5F 31
 (2025-11-03 13:21:28.131709)  can0  04110484   [2]  8A 12
 (2025-11-03 13:21:28.131797)  can0  04110700   [0] 
 (2025-11-03 13:21:28.133151)  can0  083083C0   [1]  1F
 (2025-11-03 13:21:28.133350)  can0  04110580   [0] 
 (2025-11-03 13:21:28.133988)  can0  08308100   [0] 
 (2025-11-03 13:21:28.608244)  can0  08308002   [8]  01 13 00 D2 C2 0A 08 00
 (2025-11-03 13:21:28.608837)  can0  04110502   [8]  01 13 00 D2 C2 0A 08 00
 (2025-11-03 13:21:28.611070)  can0  08308080   [8]  20 01 01 00 00 00 00 00
 (2025-11-03 13:21:28.611507)  can0  08308081   [8]  00 0B 19 62 93 13 18 0A
 (2025-11-03 13:21:28.611736)  can0  08308082   [4]  C0 85 E1 D0
 (2025-11-03 13:21:28.611967)  can0  08308300   [0] 
 (2025-11-03 13:21:28.612144)  can0  041107C0   [1]  07
 (2025-11-03 13:21:28.612899)  can0  08308180   [0] 
 (2025-11-03 13:21:28.613121)  can0  04110500   [0] 
 (2025-11-03 13:21:28.709280)  can0  08308002   [8]  01 13 00 D3 C2 0A 08 00
 (2025-11-03 13:21:28.709861)  can0  04110502   [8]  01 13 00 D3 C2 0A 08 00
 (2025-11-03 13:21:28.711803)  can0  08308080   [8]  20 01 03 00 00 00 00 00
 (2025-11-03 13:21:28.712066)  can0  08308081   [8]  00 0B 19 63 DC 91 18 0A
 (2025-11-03 13:21:28.712379)  can0  08308082   [4]  C0 85 05 6E
 (2025-11-03 13:21:28.712634)  can0  08308300   [0] 
 (2025-11-03 13:21:28.712835)  can0  041107C0   [1]  07
 (2025-11-03 13:21:28.713749)  can0  08308180   [0] 
 (2025-11-03 13:21:28.713964)  can0  04110500   [0] 
 (2025-11-03 13:21:28.714986)  can0  08308007   [8]  01 3D 00 D4 C2 0A 08 00
 (2025-11-03 13:21:28.715216)  can0  04110507   [8]  01 3D 00 D4 C2 0A 08 00
 (2025-11-03 13:21:28.716160)  can0  08308080   [8]  20 17 04 00 00 00 00 00
 (2025-11-03 13:21:28.716494)  can0  08308081   [8]  00 0B 19 63 EE AE 0E 44
 (2025-11-03 13:21:28.716784)  can0  08308082   [8]  44 52 2F 74 65 73 74 5F
 (2025-11-03 13:21:28.717007)  can0  08308083   [8]  64 69 72 5F 32 0B 74 65
 (2025-11-03 13:21:28.717264)  can0  08308084   [8]  73 74 5F 66 69 6C 65 5F
 (2025-11-03 13:21:28.717599)  can0  08308085   [8]  31 00 00 00 00 00 00 04
 (2025-11-03 13:21:28.717826)  can0  08308086   [8]  00 00 00 04 94 17 47 2F
 (2025-11-03 13:21:28.718063)  can0  08308087   [6]  00 00 00 00 D7 AB
 (2025-11-03 13:21:28.718305)  can0  08308300   [0] 
 (2025-11-03 13:21:28.718472)  can0  041107C0   [1]  FF
 (2025-11-03 13:21:28.719224)  can0  08308180   [0] 
 (2025-11-03 13:21:28.719400)  can0  04110500   [0] 
 (2025-11-03 13:21:28.720236)  can0  08308002   [8]  01 13 00 D5 C2 0A 08 00
 (2025-11-03 13:21:28.720453)  can0  04110502   [8]  01 13 00 D5 C2 0A 08 00
 (2025-11-03 13:21:28.721440)  can0  08308080   [8]  20 01 07 00 00 00 00 00
 (2025-11-03 13:21:28.721752)  can0  08308081   [8]  00 0B 19 63 F5 9D 18 0A
 (2025-11-03 13:21:28.721941)  can0  08308082   [4]  C0 85 AF 0B
 (2025-11-03 13:21:28.722139)  can0  08308300   [0] 
 (2025-11-03 13:21:28.722331)  can0  041107C0   [1]  07
 (2025-11-03 13:21:28.723010)  can0  08308180   [0] 
 (2025-11-03 13:21:28.723198)  can0  04110500   [0] 
 (2025-11-03 13:21:28.735305)  can0  04110404   [8]  8D 21 00 86 C0 0A 18 00
 (2025-11-03 13:21:28.736141)  can0  08308104   [8]  8D 21 00 86 C0 0A 18 00
 (2025-11-03 13:21:28.736401)  can0  04110480   [8]  2F 17 03 00 00 0E 44 44
 (2025-11-03 13:21:28.736498)  can0  04110481   [8]  52 2F 74 65 73 74 5F 64
 (2025-11-03 13:21:28.736569)  can0  04110482   [8]  69 72 5F 32 0B 74 65 73
 (2025-11-03 13:21:28.736693)  can0  04110483   [8]  74 5F 66 69 6C 65 5F 31
 (2025-11-03 13:21:28.736757)  can0  04110484   [2]  23 4D
 (2025-11-03 13:21:28.736843)  can0  04110700   [0] 
 (2025-11-03 13:21:28.738841)  can0  083083C0   [1]  1F
 (2025-11-03 13:21:28.739059)  can0  04110580   [0] 
 (2025-11-03 13:21:28.740249)  can0  08308100   [0] 
 (2025-11-03 13:21:29.108192)  can0  08308002   [8]  01 13 00 D6 C2 0A 08 00
 (2025-11-03 13:21:29.108809)  can0  04110502   [8]  01 13 00 D6 C2 0A 08 00
 (2025-11-03 13:21:29.110242)  can0  08308080   [8]  20 01 01 00 00 00 00 00
 (2025-11-03 13:21:29.110637)  can0  08308081   [8]  00 0B 19 E2 93 46 18 0A
 (2025-11-03 13:21:29.110874)  can0  08308082   [4]  C0 86 2B 94
 (2025-11-03 13:21:29.111073)  can0  08308300   [0] 
 (2025-11-03 13:21:29.111256)  can0  041107C0   [1]  07
 (2025-11-03 13:21:29.112014)  can0  08308180   [0] 
 (2025-11-03 13:21:29.112209)  can0  04110500   [0] 
 (2025-11-03 13:21:29.209630)  can0  08308002   [8]  01 13 00 D7 C2 0A 08 00
 (2025-11-03 13:21:29.210178)  can0  04110502   [8]  01 13 00 D7 C2 0A 08 00
 (2025-11-03 13:21:29.211781)  can0  08308080   [8]  20 01 03 00 00 00 00 00
 (2025-11-03 13:21:29.212059)  can0  08308081   [8]  00 0B 19 E3 DD AC 18 0A
 (2025-11-03 13:21:29.212269)  can0  08308082   [4]  C0 86 91 7B
 (2025-11-03 13:21:29.212584)  can0  08308300   [0] 
 (2025-11-03 13:21:29.212784)  can0  041107C0   [1]  07
 (2025-11-03 13:21:29.213711)  can0  08308180   [0] 
 (2025-11-03 13:21:29.213919)  can0  04110500   [0] 
 (2025-11-03 13:21:29.214936)  can0  08308007   [8]  01 3D 00 D8 C2 0A 08 00
 (2025-11-03 13:21:29.215231)  can0  04110507   [8]  01 3D 00 D8 C2 0A 08 00
 (2025-11-03 13:21:29.216160)  can0  08308080   [8]  20 17 04 00 00 00 00 00
 (2025-11-03 13:21:29.216522)  can0  08308081   [8]  00 0B 19 E3 EF EA 0E 44
 (2025-11-03 13:21:29.216775)  can0  08308082   [8]  44 52 2F 74 65 73 74 5F
 (2025-11-03 13:21:29.217014)  can0  08308083   [8]  64 69 72 5F 32 0B 74 65
 (2025-11-03 13:21:29.217272)  can0  08308084   [8]  73 74 5F 66 69 6C 65 5F
 (2025-11-03 13:21:29.217707)  can0  08308085   [8]  31 00 00 00 00 00 00 04
 (2025-11-03 13:21:29.217854)  can0  08308086   [8]  00 00 00 04 94 17 47 2F
 (2025-11-03 13:21:29.218079)  can0  08308087   [6]  00 00 00 00 9D 3A
 (2025-11-03 13:21:29.218339)  can0  08308300   [0] 
 (2025-11-03 13:21:29.218545)  can0  041107C0   [1]  FF
 (2025-11-03 13:21:29.219431)  can0  08308180   [0] 
 (2025-11-03 13:21:29.219701)  can0  04110500   [0] 
 (2025-11-03 13:21:29.220556)  can0  08308002   [8]  01 13 00 D9 C2 0A 08 00
 (2025-11-03 13:21:29.220794)  can0  04110502   [8]  01 13 00 D9 C2 0A 08 00
 (2025-11-03 13:21:29.221761)  can0  08308080   [8]  20 01 07 00 00 00 00 00
 (2025-11-03 13:21:29.222010)  can0  08308081   [8]  00 0B 19 E3 F6 CD 18 0A
 (2025-11-03 13:21:29.222217)  can0  08308082   [4]  C0 86 47 8E
 (2025-11-03 13:21:29.222535)  can0  08308300   [0] 
 (2025-11-03 13:21:29.222797)  can0  041107C0   [1]  07
 (2025-11-03 13:21:29.223602)  can0  08308180   [0] 
 (2025-11-03 13:21:29.223817)  can0  04110500   [0] 
 (2025-11-03 13:21:29.235266)  can0  04110402   [8]  8F 15 00 87 C0 0A 18 00
 (2025-11-03 13:21:29.236107)  can0  08308102   [8]  8F 15 00 87 C0 0A 18 00
 (2025-11-03 13:21:29.236375)  can0  04110480   [8]  2F 17 0C 00 00 0E 44 44
 (2025-11-03 13:21:29.236428)  can0  04110481   [8]  52 2F 74 65 73 74 5F 64
 (2025-11-03 13:21:29.236472)  can0  04110482   [6]  69 72 5F 32 F9 60
 (2025-11-03 13:21:29.236532)  can0  04110700   [0] 
 (2025-11-03 13:21:29.238263)  can0  083083C0   [1]  07
 (2025-11-03 13:21:29.238505)  can0  04110580   [0] 
 (2025-11-03 13:21:29.239181)  can0  08308100   [0] 
 (2025-11-03 13:21:29.285374)  can0       720   [1]  7F
 (2025-11-03 13:21:29.608266)  can0  08308002   [8]  01 13 00 DA C2 0A 08 00
 (2025-11-03 13:21:29.608809)  can0  04110502   [8]  01 13 00 DA C2 0A 08 00
 (2025-11-03 13:21:29.610607)  can0  08308080   [8]  20 01 01 00 00 00 00 00
 (2025-11-03 13:21:29.610888)  can0  08308081   [8]  00 0B 1A 62 91 35 18 0A
 (2025-11-03 13:21:29.611126)  can0  08308082   [4]  C0 87 88 E0
 (2025-11-03 13:21:29.611411)  can0  08308300   [0] 
 (2025-11-03 13:21:29.611620)  can0  041107C0   [1]  07
 (2025-11-03 13:21:29.612519)  can0  08308180   [0] 
 (2025-11-03 13:21:29.612778)  can0  04110500   [0] 
 (2025-11-03 13:21:29.709511)  can0  08308002   [8]  01 13 00 DB C2 0A 08 00
 (2025-11-03 13:21:29.710030)  can0  04110502   [8]  01 13 00 DB C2 0A 08 00
 (2025-11-03 13:21:29.712299)  can0  08308080   [8]  20 01 03 00 00 00 00 00
 (2025-11-03 13:21:29.712764)  can0  08308081   [8]  00 0B 1A 63 E2 7F 18 0A
 (2025-11-03 13:21:29.712972)  can0  08308082   [4]  C0 87 79 A4
 (2025-11-03 13:21:29.713227)  can0  08308300   [0] 
 (2025-11-03 13:21:29.713431)  can0  041107C0   [1]  07
 (2025-11-03 13:21:29.714480)  can0  08308180   [0] 
 (2025-11-03 13:21:29.714702)  can0  04110500   [0] 
 (2025-11-03 13:21:29.715718)  can0  0830800A   [8]  01 53 00 DC C2 0A 08 00
 (2025-11-03 13:21:29.715952)  can0  0411050A   [8]  01 53 00 DC C2 0A 08 00
 (2025-11-03 13:21:29.716982)  can0  08308080   [8]  20 17 0D 00 00 00 00 00
 (2025-11-03 13:21:29.717245)  can0  08308081   [8]  00 0B 1A 63 EC 93 0E 44
 (2025-11-03 13:21:29.717591)  can0  08308082   [8]  44 52 2F 74 65 73 74 5F
 (2025-11-03 13:21:29.717857)  can0  08308083   [8]  64 69 72 5F 32 04 00 0B
 (2025-11-03 13:21:29.718087)  can0  08308084   [8]  74 65 73 74 5F 66 69 6C
 (2025-11-03 13:21:29.718410)  can0  08308085   [8]  65 5F 32 00 0B 74 65 73
 (2025-11-03 13:21:29.718712)  can0  08308086   [8]  74 5F 66 69 6C 65 5F 32
 (2025-11-03 13:21:29.718935)  can0  08308087   [8]  00 0B 74 65 73 74 5F 66
 (2025-11-03 13:21:29.719166)  can0  08308088   [8]  69 6C 65 5F 31 00 0B 74
 (2025-11-03 13:21:29.719462)  can0  08308089   [8]  65 73 74 5F 66 69 6C 65
 (2025-11-03 13:21:29.734562)  can0  0830808A   [4]  5F 31 B1 AE
 (2025-11-03 13:21:29.734805)  can0  08308300   [0] 
 (2025-11-03 13:21:29.735017)  can0  041107C0   [2]  FF 07
 (2025-11-03 13:21:29.735819)  can0  08308180   [0] 
 (2025-11-03 13:21:29.736008)  can0  04110500   [0] 
 (2025-11-03 13:21:29.736900)  can0  08308002   [8]  01 13 00 DD C2 0A 08 00
 (2025-11-03 13:21:29.737096)  can0  04110502   [8]  01 13 00 DD C2 0A 08 00
 (2025-11-03 13:21:29.737942)  can0  08308080   [8]  20 01 07 00 00 00 00 00
 (2025-11-03 13:21:29.738192)  can0  08308081   [8]  00 0B 1A 63 F1 FA 18 0A
 (2025-11-03 13:21:29.738957)  can0  08308082   [4]  C0 87 F0 E3
 (2025-11-03 13:21:29.739183)  can0  08308300   [0] 
 (2025-11-03 13:21:29.739374)  can0  041107C0   [1]  07
 (2025-11-03 13:21:29.740719)  can0  08308180   [0] 
 (2025-11-03 13:21:29.740898)  can0  04110500   [0] 
 (2025-11-03 13:21:29.752860)  can0  04110402   [8]  91 15 00 88 C0 0A 18 00
 (2025-11-03 13:21:29.753766)  can0  08308102   [8]  91 15 00 88 C0 0A 18 00
 (2025-11-03 13:21:29.754026)  can0  04110480   [8]  2F 17 0A 00 00 03 44 44
 (2025-11-03 13:21:29.754116)  can0  04110481   [8]  52 0A 74 65 73 74 5F 64
 (2025-11-03 13:21:29.754176)  can0  04110482   [6]  69 72 5F 32 FB D0
 (2025-11-03 13:21:29.754236)  can0  04110700   [0] 
 (2025-11-03 13:21:29.755403)  can0  083083C0   [1]  07
 (2025-11-03 13:21:29.755593)  can0  04110580   [0] 
 (2025-11-03 13:21:29.756220)  can0  08308100   [0] 
 (2025-11-03 13:21:30.108197)  can0  08308002   [8]  01 13 00 DE C2 0A 08 00
 (2025-11-03 13:21:30.108782)  can0  04110502   [8]  01 13 00 DE C2 0A 08 00
 (2025-11-03 13:21:30.110253)  can0  08308080   [8]  20 01 01 00 00 00 00 00
 (2025-11-03 13:21:30.110644)  can0  08308081   [8]  00 0B 1A E2 91 97 18 0A
 (2025-11-03 13:21:30.110865)  can0  08308082   [4]  C0 88 DB AA
 (2025-11-03 13:21:30.111091)  can0  08308300   [0] 
 (2025-11-03 13:21:30.111283)  can0  041107C0   [1]  07
 (2025-11-03 13:21:30.112208)  can0  08308180   [0] 
 (2025-11-03 13:21:30.112436)  can0  04110500   [0] 
 (2025-11-03 13:21:30.309084)  can0  08308002   [8]  01 13 00 DF C2 0A 08 00
 (2025-11-03 13:21:30.309712)  can0  04110502   [8]  01 13 00 DF C2 0A 08 00
 (2025-11-03 13:21:30.311083)  can0  08308080   [8]  20 01 03 00 00 00 00 00
 (2025-11-03 13:21:30.311455)  can0  08308081   [8]  00 0B 1A E3 DC 3C 18 0A
 (2025-11-03 13:21:30.311716)  can0  08308082   [4]  C0 88 14 9C
 (2025-11-03 13:21:30.311926)  can0  08308300   [0] 
 (2025-11-03 13:21:30.312137)  can0  041107C0   [1]  07
 (2025-11-03 13:21:30.312944)  can0  08308180   [0] 
 (2025-11-03 13:21:30.313158)  can0  04110500   [0] 
 (2025-11-03 13:21:30.314063)  can0  08308002   [8]  01 13 00 E0 C2 0A 08 00
 (2025-11-03 13:21:30.314282)  can0  04110502   [8]  01 13 00 E0 C2 0A 08 00
 (2025-11-03 13:21:30.315286)  can0  08308080   [8]  20 01 07 00 00 00 00 00
 (2025-11-03 13:21:30.315705)  can0  08308081   [8]  00 0B 1A E3 F2 90 18 0A
 (2025-11-03 13:21:30.315868)  can0  08308082   [4]  C0 88 C5 2A
 (2025-11-03 13:21:30.316093)  can0  08308300   [0] 
 (2025-11-03 13:21:30.316279)  can0  041107C0   [1]  07
 (2025-11-03 13:21:30.317223)  can0  08308180   [0] 
 (2025-11-03 13:21:30.317478)  can0  04110500   [0] 
 (2025-11-03 13:21:30.323575)  can0  04110401   [8]  93 0A 00 89 C0 0A 18 00
 (2025-11-03 13:21:30.324590)  can0  08308101   [8]  93 0A 00 89 C0 0A 18 00
 (2025-11-03 13:21:30.324869)  can0  04110480   [8]  2F 17 0C 00 00 03 44 44
 (2025-11-03 13:21:30.324920)  can0  04110481   [3]  52 85 09
 (2025-11-03 13:21:30.324974)  can0  04110700   [0] 
 (2025-11-03 13:21:30.326036)  can0  083083C0   [1]  03
 (2025-11-03 13:21:30.326244)  can0  04110580   [0] 
 (2025-11-03 13:21:30.326896)  can0  08308100   [0] 
 (2025-11-03 13:21:30.708565)  can0  08308002   [8]  01 13 00 E1 C2 0A 08 00
 (2025-11-03 13:21:30.709131)  can0  04110502   [8]  01 13 00 E1 C2 0A 08 00
 (2025-11-03 13:21:30.710200)  can0  08308080   [8]  20 01 01 00 00 00 00 00
 (2025-11-03 13:21:30.710547)  can0  08308081   [8]  00 0B 1B 7C 2B D0 18 0A
 (2025-11-03 13:21:30.710811)  can0  08308082   [4]  C0 89 6C C0
 (2025-11-03 13:21:30.711011)  can0  08308300   [0] 
 (2025-11-03 13:21:30.711233)  can0  041107C0   [1]  07
 (2025-11-03 13:21:30.711982)  can0  08308180   [0] 
 (2025-11-03 13:21:30.712214)  can0  04110500   [0] 
 (2025-11-03 13:21:30.809412)  can0  08308002   [8]  01 13 00 E2 C2 0A 08 00
 (2025-11-03 13:21:30.809947)  can0  04110502   [8]  01 13 00 E2 C2 0A 08 00
 (2025-11-03 13:21:30.812545)  can0  08308080   [8]  20 01 03 00 00 00 00 00
 (2025-11-03 13:21:30.812709)  can0  08308081   [8]  00 0B 1B 7D 75 E9 18 0A
 (2025-11-03 13:21:30.812899)  can0  08308082   [4]  C0 89 AE 56
 (2025-11-03 13:21:30.813135)  can0  08308300   [0] 
 (2025-11-03 13:21:30.813344)  can0  041107C0   [1]  07
 (2025-11-03 13:21:30.814102)  can0  08308180   [0] 
 (2025-11-03 13:21:30.814297)  can0  04110500   [0] 
 (2025-11-03 13:21:30.815155)  can0  08308004   [8]  01 20 00 E3 C2 0A 08 00
 (2025-11-03 13:21:30.815445)  can0  04110504   [8]  01 20 00 E3 C2 0A 08 00
 (2025-11-03 13:21:30.816515)  can0  08308080   [8]  20 17 0D 00 00 00 00 00
 (2025-11-03 13:21:30.816830)  can0  08308081   [8]  00 0B 1B 7D 80 45 03 44
 (2025-11-03 13:21:30.817059)  can0  08308082   [8]  44 52 01 01 0A 74 65 73
 (2025-11-03 13:21:30.817306)  can0  08308083   [8]  74 5F 64 69 72 5F 31 60
 (2025-11-03 13:21:30.817597)  can0  08308084   [1]  D3
 (2025-11-03 13:21:30.817845)  can0  08308300   [0] 
 (2025-11-03 13:21:30.818030)  can0  041107C0   [1]  1F
 (2025-11-03 13:21:30.818911)  can0  08308180   [0] 
 (2025-11-03 13:21:30.819108)  can0  04110500   [0] 
 (2025-11-03 13:21:30.820072)  can0  08308002   [8]  01 13 00 E4 C2 0A 08 00
 (2025-11-03 13:21:30.820281)  can0  04110502   [8]  01 13 00 E4 C2 0A 08 00
 (2025-11-03 13:21:30.821133)  can0  08308080   [8]  20 01 07 00 00 00 00 00
 (2025-11-03 13:21:30.821457)  can0  08308081   [8]  00 0B 1B 7D 85 98 18 0A
 (2025-11-03 13:21:30.821714)  can0  08308082   [4]  C0 89 D4 99
 (2025-11-03 13:21:30.821925)  can0  08308300   [0] 
 (2025-11-03 13:21:30.822114)  can0  041107C0   [1]  07
 (2025-11-03 13:21:30.822852)  can0  08308180   [0] 
 (2025-11-03 13:21:30.823063)  can0  04110500   [0] 
 (2025-11-03 13:21:30.835090)  can0  04110402   [8]  95 15 00 8A C0 0A 18 00
 (2025-11-03 13:21:30.835923)  can0  08308102   [8]  95 15 00 8A C0 0A 18 00
 (2025-11-03 13:21:30.836210)  can0  04110480   [8]  2F 17 0A 00 00 03 44 44
 (2025-11-03 13:21:30.836303)  can0  04110481   [8]  52 0A 74 65 73 74 5F 64
 (2025-11-03 13:21:30.836356)  can0  04110482   [6]  69 72 5F 31 01 A5
 (2025-11-03 13:21:30.836421)  can0  04110700   [0] 
 (2025-11-03 13:21:30.837633)  can0  083083C0   [1]  07
 (2025-11-03 13:21:30.837847)  can0  04110580   [0] 
 (2025-11-03 13:21:30.839095)  can0  08308100   [0] 
 (2025-11-03 13:21:31.207887)  can0  08308002   [8]  01 13 00 E5 C2 0A 08 00
 (2025-11-03 13:21:31.208414)  can0  04110502   [8]  01 13 00 E5 C2 0A 08 00
 (2025-11-03 13:21:31.210343)  can0  08308080   [8]  20 01 01 00 00 00 00 00
 (2025-11-03 13:21:31.210747)  can0  08308081   [8]  00 0B 1B FC 2C 1D 18 0A
 (2025-11-03 13:21:31.210952)  can0  08308082   [4]  C0 8A 4A 62
 (2025-11-03 13:21:31.211180)  can0  08308300   [0] 
 (2025-11-03 13:21:31.211404)  can0  041107C0   [1]  07
 (2025-11-03 13:21:31.212222)  can0  08308180   [0] 
 (2025-11-03 13:21:31.212411)  can0  04110500   [0] 
 (2025-11-03 13:21:31.285734)  can0       720   [1]  7F
 (2025-11-03 13:21:31.309073)  can0  08308002   [8]  01 13 00 E6 C2 0A 08 00
 (2025-11-03 13:21:31.310168)  can0  04110502   [8]  01 13 00 E6 C2 0A 08 00
 (2025-11-03 13:21:31.311101)  can0  08308080   [8]  20 01 03 00 00 00 00 00
 (2025-11-03 13:21:31.311476)  can0  08308081   [8]  00 0B 1B FD 74 42 18 0A
 (2025-11-03 13:21:31.311734)  can0  08308082   [4]  C0 8A D1 4C
 (2025-11-03 13:21:31.311931)  can0  08308300   [0] 
 (2025-11-03 13:21:31.312182)  can0  041107C0   [1]  07
 (2025-11-03 13:21:31.313017)  can0  08308180   [0] 
 (2025-11-03 13:21:31.313227)  can0  04110500   [0] 
 (2025-11-03 13:21:31.314262)  can0  08308002   [8]  01 13 00 E7 C2 0A 08 00
 (2025-11-03 13:21:31.314517)  can0  04110502   [8]  01 13 00 E7 C2 0A 08 00
 (2025-11-03 13:21:31.315585)  can0  08308080   [8]  20 01 07 00 00 00 00 00
 (2025-11-03 13:21:31.315874)  can0  08308081   [8]  00 0B 1B FD 89 B9 18 0A
 (2025-11-03 13:21:31.316096)  can0  08308082   [4]  C0 8A 88 3E
 (2025-11-03 13:21:31.316382)  can0  08308300   [0] 
 (2025-11-03 13:21:31.316597)  can0  041107C0   [1]  07
 (2025-11-03 13:21:31.317461)  can0  08308180   [0] 
 (2025-11-03 13:21:31.317706)  can0  04110500   [0] 
 (2025-11-03 13:21:31.323866)  can0  04110401   [8]  97 0A 00 8B C0 0A 18 00
 (2025-11-03 13:21:31.324814)  can0  08308101   [8]  97 0A 00 8B C0 0A 18 00
 (2025-11-03 13:21:31.325079)  can0  04110480   [8]  2F 17 0C 00 00 03 44 44
 (2025-11-03 13:21:31.325164)  can0  04110481   [3]  52 83 E3
 (2025-11-03 13:21:31.325215)  can0  04110700   [0] 
 (2025-11-03 13:21:31.326223)  can0  083083C0   [1]  03
 (2025-11-03 13:21:31.326446)  can0  04110580   [0] 
 (2025-11-03 13:21:31.327101)  can0  08308100   [0] 
 (2025-11-03 13:21:31.707896)  can0  08308002   [8]  01 13 00 E8 C2 0A 08 00
 (2025-11-03 13:21:31.708524)  can0  04110502   [8]  01 13 00 E8 C2 0A 08 00
 (2025-11-03 13:21:31.710330)  can0  08308080   [8]  20 01 01 00 00 00 00 00
 (2025-11-03 13:21:31.710732)  can0  08308081   [8]  00 0B 1C 7C 2B A7 18 0A
 (2025-11-03 13:21:31.710970)  can0  08308082   [4]  C0 8B EB 48
 (2025-11-03 13:21:31.711157)  can0  08308300   [0] 
 (2025-11-03 13:21:31.711339)  can0  041107C0   [1]  07
 (2025-11-03 13:21:31.712100)  can0  08308180   [0] 
 (2025-11-03 13:21:31.712325)  can0  04110500   [0] 
 (2025-11-03 13:21:31.809685)  can0  08308002   [8]  01 13 00 E9 C2 0A 08 00
 (2025-11-03 13:21:31.810287)  can0  04110502   [8]  01 13 00 E9 C2 0A 08 00
 (2025-11-03 13:21:31.811714)  can0  08308080   [8]  20 01 03 00 00 00 00 00
 (2025-11-03 13:21:31.811968)  can0  08308081   [8]  00 0B 1C 7D 74 87 18 0A
 (2025-11-03 13:21:31.812199)  can0  08308082   [4]  C0 8B 7B 95
 (2025-11-03 13:21:31.812504)  can0  08308300   [0] 
 (2025-11-03 13:21:31.812703)  can0  041107C0   [1]  07
 (2025-11-03 13:21:31.813718)  can0  08308180   [0] 
 (2025-11-03 13:21:31.813943)  can0  04110500   [0] 
 (2025-11-03 13:21:31.814976)  can0  08308002   [8]  01 14 00 EA C2 0A 08 00
 (2025-11-03 13:21:31.815220)  can0  04110502   [8]  01 14 00 EA C2 0A 08 00
 (2025-11-03 13:21:31.816351)  can0  08308080   [8]  20 17 0D 00 00 00 00 00
 (2025-11-03 13:21:31.816747)  can0  08308081   [8]  00 0B 1C 7D 7F 2D 03 44
 (2025-11-03 13:21:31.816955)  can0  08308082   [5]  44 52 00 33 89
 (2025-11-03 13:21:31.817146)  can0  08308300   [0] 
 (2025-11-03 13:21:31.817346)  can0  041107C0   [1]  07
 (2025-11-03 13:21:31.818119)  can0  08308180   [0] 
 (2025-11-03 13:21:31.818305)  can0  04110500   [0] 
 (2025-11-03 13:21:31.819119)  can0  08308002   [8]  01 13 00 EB C2 0A 08 00
 (2025-11-03 13:21:31.819352)  can0  04110502   [8]  01 13 00 EB C2 0A 08 00
 (2025-11-03 13:21:31.820205)  can0  08308080   [8]  20 01 07 00 00 00 00 00
 (2025-11-03 13:21:31.820529)  can0  08308081   [8]  00 0B 1C 7D 84 17 18 0A
 (2025-11-03 13:21:31.820774)  can0  08308082   [4]  C0 8B F7 BC
 (2025-11-03 13:21:31.820979)  can0  08308300   [0] 
 (2025-11-03 13:21:31.821173)  can0  041107C0   [1]  07
 (2025-11-03 13:21:31.821862)  can0  08308180   [0] 
 (2025-11-03 13:21:31.822082)  can0  04110500   [0] 
 (2025-11-03 13:21:33.285840)  can0       720   [1]  7F
 (2025-11-03 13:21:35.285763)  can0       720   [1]  7F
