 (2025-11-03 16:45:31.395220)  can0  720   [1]  7F
 (2025-11-03 16:45:33.395628)  can0  720   [1]  7F
 (2025-11-03 16:45:35.395389)  can0  720   [1]  7F
 (2025-11-03 16:45:37.395610)  can0  720   [1]  7F
 (2025-11-03 16:45:38.046862)  can0  04110400   [8]  0D 06 00 07 C0 0A 18 00
 (2025-11-03 16:45:38.048011)  can0  08308100   [8]  0D 06 00 07 C0 0A 18 00
 (2025-11-03 16:45:38.048319)  can0  04110480   [7]  2F 11 01 00 00 2A 81
 (2025-11-03 16:45:38.048379)  can0  04110700   [0] 
 (2025-11-03 16:45:38.050256)  can0  083083C0   [1]  01
 (2025-11-03 16:45:38.050443)  can0  04110580   [0] 
 (2025-11-03 16:45:38.051113)  can0  08308100   [0] 
 (2025-11-03 16:45:38.418090)  can0  08308002   [8]  01 13 00 03 C3 0A 08 00
 (2025-11-03 16:45:38.418719)  can0  04110502   [8]  01 13 00 03 C3 0A 08 00
 (2025-11-03 16:45:38.421015)  can0  08308080   [8]  20 01 01 00 00 00 00 00
 (2025-11-03 16:45:38.421030)  can0  08308081   [8]  00 3A F3 15 C2 C0 18 0A
 (2025-11-03 16:45:38.421031)  can0  08308082   [4]  C0 07 C4 26
 (2025-11-03 16:45:38.421031)  can0  08308300   [0] 
 (2025-11-03 16:45:38.421616)  can0  041107C0   [1]  07
 (2025-11-03 16:45:38.422634)  can0  08308180   [0] 
 (2025-11-03 16:45:38.422881)  can0  04110500   [0] 
 (2025-11-03 16:45:38.519045)  can0  08308002   [8]  01 13 00 04 C3 0A 08 00
 (2025-11-03 16:45:38.519628)  can0  04110502   [8]  01 13 00 04 C3 0A 08 00
 (2025-11-03 16:45:38.521517)  can0  08308080   [8]  20 01 03 00 00 00 00 00
 (2025-11-03 16:45:38.521798)  can0  08308081   [8]  00 3A F3 16 DC 0F 18 0A
 (2025-11-03 16:45:38.522022)  can0  08308082   [4]  C0 07 99 2B
 (2025-11-03 16:45:38.522313)  can0  08308300   [0] 
 (2025-11-03 16:45:38.522507)  can0  041107C0   [1]  07
 (2025-11-03 16:45:38.523426)  can0  08308180   [0] 
 (2025-11-03 16:45:38.523628)  can0  04110500   [0] 
 (2025-11-03 16:45:38.524647)  can0  08308001   [8]  01 0F 00 05 C3 0A 08 00
 (2025-11-03 16:45:38.524897)  can0  04110501   [8]  01 0F 00 05 C3 0A 08 00
 (2025-11-03 16:45:38.525954)  can0  08308080   [8]  20 11 02 00 00 00 00 00
 (2025-11-03 16:45:38.526310)  can0  08308081   [8]  00 3A F3 16 E5 B4 18 92
 (2025-11-03 16:45:38.526511)  can0  08308300   [0] 
 (2025-11-03 16:45:38.526729)  can0  041107C0   [1]  03
 (2025-11-03 16:45:38.527595)  can0  08308180   [0] 
 (2025-11-03 16:45:38.527805)  can0  04110500   [0] 
 (2025-11-03 16:45:38.528728)  can0  08308002   [8]  01 13 00 06 C3 0A 08 00
 (2025-11-03 16:45:38.528970)  can0  04110502   [8]  01 13 00 06 C3 0A 08 00
 (2025-11-03 16:45:38.529818)  can0  08308080   [8]  20 01 07 00 00 00 00 00
 (2025-11-03 16:45:38.530098)  can0  08308081   [8]  00 3A F3 16 EA 7D 18 0A
 (2025-11-03 16:45:38.530402)  can0  08308082   [4]  C0 07 59 5C
 (2025-11-03 16:45:38.530633)  can0  08308300   [0] 
 (2025-11-03 16:45:38.530828)  can0  041107C0   [1]  07
 (2025-11-03 16:45:38.531587)  can0  08308180   [0] 
 (2025-11-03 16:45:38.531806)  can0  04110500   [0] 
 (2025-11-03 16:45:39.395603)  can0       720   [1]  7F
 (2025-11-03 16:45:41.395616)  can0       720   [1]  7F
 (2025-11-03 16:45:43.395402)  can0       720   [1]  7F
